!Keysight Technologies N9923A: A.08.18
!Date: Friday, 22 December 2017 11:53:47
!Timezone: (GMT-05:00) Eastern Time (US & Canada)
!Model: N9923A
!Serial: MY52412517
!GPS Latitude: 
!GPS Longitude: 
!GPS TimeStamp: 0001-01-01 00:00:00Z
!GPS Seconds Since Last Read: 0
!CHECKSUM:1722749015
!Correction: S11(ON Q)S21(ON Q)S12(ON Q)S22(ON Q)
!S2P File: Measurements:S11,S21,S12,S22:
# Hz S DB R 50
500000000	-0.760513964454657	-97.3870159471675	-83.6545191346085	94.6081646373461	-82.8676407479852	-67.1237647270786	0.690514112653259	-159.228439101098	
510000000	-0.710106065886123	-110.610687976175	-77.6451984611353	-32.0830474270438	-79.0099051483988	-41.4292337246005	0.695736822690078	-126.400273143049	
520000000	-0.744863214610251	-124.601110484716	-84.6457768915057	53.0064742710016	-82.8746399718628	21.3440137241202	0.703800128266657	-93.5985602714829	
530000000	-0.857959656985961	-141.317150445247	-76.3499876779218	-119.240354484074	-83.4118480114636	58.9137047412289	0.707719343166289	-60.7927220730926	
540000000	-0.986163919155642	-162.230883569999	-77.8004591183606	-175.031154078202	-91.4932279441925	-45.768840613492	0.711053803836588	-27.982494491212	
550000000	-1.01315585870421	172.700665324848	-87.6380032742555	-108.46230985118	-79.1805329281311	169.894016524872	0.72037990243969	4.82689277268913	
560000000	-0.902449264718373	145.594646760223	-80.7741870045072	-106.577092497292	-78.1488038751202	113.971905452214	0.728265268333217	37.6412250499328	
570000000	-0.73429993960938	118.374504394031	-84.8240409768409	91.4705275948506	-86.7841102148788	-130.639117023018	0.733558037325343	70.443786628893	
580000000	-0.622322707454507	90.4916320032621	-79.7313203779839	15.0398654831169	-77.4856914627496	-155.188679609625	0.740586519185521	103.261596133024	
590000000	-0.673938852245396	59.5973566386455	-84.0147448256383	-38.1982725163796	-83.8396649715347	124.766457040772	0.747340083643553	136.072509169812	
600000000	-0.796142775549974	25.0710208882175	-98.5578428640309	-174.665073279874	-79.0124237631084	-21.8720379537898	0.75750122128579	168.869805583321	
610000000	-0.827176274183204	-9.44163195269397	-82.392193224463	11.4377735987953	-78.6791379002105	80.5426047404906	0.765684864260288	-158.325888854062	
620000000	-0.73757454560351	-39.1080397998772	-77.7617244108845	-72.6533350041127	-90.9049365393051	-51.4568239689125	0.775175023711799	-125.554546647806	
630000000	-0.643261325991163	-62.8698759689486	-75.6046293732453	-178.963837597618	-78.0741027067253	97.2271618738286	0.781096500213558	-92.7446068085924	
640000000	-0.656388356131097	-82.9457592114146	-81.570772038625	-106.566714431576	-86.0615086068324	-141.15415987507	0.79388909202482	-59.9650260152284	
650000000	-0.780660801443513	-102.110024734253	-72.9806186717258	18.1459087630983	-78.7911658817038	3.39461311681742	0.802428536144082	-27.1868244052636	
660000000	-0.948299152037996	-121.625295395757	-79.8238244202618	-100.187881061906	-75.3665361826573	110.586702428938	0.808925810473644	5.60169281610298	
670000000	-1.05891214925847	-140.954611031696	-86.9050870041001	-25.417105225795	-75.418642344467	-150.782249717471	0.819935929323081	38.3844836202697	
680000000	-1.04618793032285	-158.650825952949	-80.9499040751722	-1.59455172382193	-78.010980903877	0.740063889777175	0.832256811837404	71.1554425623986	
690000000	-0.938306159736191	-173.742664008048	-77.4669230873663	30.3265483484775	-71.679770160414	-83.2872192603689	0.839921038432861	103.923116466273	
700000000	-0.831140293388418	173.595013496363	-82.230937793178	106.758383997272	-89.3540951750428	64.989833470583	0.852908186549401	136.681380291944	
710000000	-0.798426822654252	162.051535520315	-75.6332067767032	98.582356125206	-74.6744950948551	-31.0192923156774	0.860514693338365	169.449614840323	
720000000	-0.860525676113141	150.187337218049	-77.5133509129372	134.425152855611	-77.685385590833	-168.354567616118	0.875443420545018	-157.827555817722	
730000000	-1.01411662572708	136.967800029851	-88.1671097134833	-167.624785172203	-72.5605061634219	37.2460527615786	0.885980900643998	-125.056776838848	
740000000	-1.17076264134635	122.192283268176	-73.8992335565709	-4.02367804577558	-82.1306721269224	-155.634340191779	0.894752377287634	-92.3155862679962	
750000000	-1.23510840057829	106.686953730479	-81.2474150201142	-157.625845642085	-77.3358315014296	87.9794691770328	0.904640729329479	-59.6005053646047	
760000000	-1.16135290211791	91.7934628172873	-72.4160684292329	174.555176670448	-82.6609056947863	0.987379287740661	0.916724497271199	-26.9016466249142	
770000000	-1.02285425642765	78.3119290646924	-77.841762939522	4.256955821263	-76.1352631458615	-161.921470300301	0.931013195401264	5.82785419358772	
780000000	-0.905142193388534	65.9966601717047	-72.3146528008399	-45.2498206457968	-83.3104329805462	134.009495164111	0.940532548022752	38.5826925213149	
790000000	-0.889916284499193	53.8769235225868	-77.5796893264196	142.376627403558	-72.7188210830303	-112.523688901995	0.95638058566	71.2582562067662	
800000000	-0.992658808540291	40.8302484202247	-84.2395554309373	-73.9585997944411	-71.7472838108875	-50.3746092418623	0.963905068507574	103.997382076294	
810000000	-1.17446662843294	26.0618918353899	-79.1088683216785	-6.59557632764432	-83.1844644447986	23.6352152242787	0.975404531371468	136.673654530193	
820000000	-1.32462905333206	9.62474699945675	-84.7694226033258	46.291068522726	-83.5457458156307	89.5257190658669	0.983191023136687	169.395820543119	
830000000	-1.33631139666141	-7.40743526898474	-80.8666761285137	-127.106580557394	-85.0690760719793	56.3879889072798	0.996073636459092	-157.922913411235	
840000000	-1.23843349359758	-23.7631957280474	-88.1087723977242	106.77014940087	-84.1956748274846	-166.112397857483	1.00467583480777	-125.20423242485	
850000000	-1.11808361938634	-38.9565489930885	-75.3655584229583	45.6977607064535	-84.1084285702998	-21.5789066858827	1.01263475777745	-92.5236022915144	
860000000	-1.09880759833108	-53.1949743313346	-84.2998997966713	-15.575193046659	-97.7502111131338	7.88615348701084	1.02054936158913	-59.8162449879675	
870000000	-1.2568684534436	-67.7700614345944	-86.1714846964285	18.7679968873604	-87.7091254401834	32.602179663968	1.02662425397683	-27.1284255084699	
880000000	-1.57841764574092	-83.8172283499495	-88.0597542173981	-175.596073641908	-87.4928037093887	-68.1095107680739	1.03399429444325	5.57641277635138	
890000000	-1.95422980927775	-102.348684623444	-84.0793193863069	-127.250470351356	-81.2829647920079	-176.368763198955	1.04468185453054	38.2774159401165	
900000000	-2.24105906918206	-123.018793372823	-78.4048720449565	160.624250485002	-76.5686223565206	-112.397647287484	1.04244910277755	70.9745382054343	
910000000	-2.39727116276557	-144.617024279805	-85.0215695365789	-105.486096308752	-78.5776088588713	93.4526975081816	1.05213702882368	103.677207595302	
920000000	-2.5381998192482	-165.629153231316	-80.5499071057589	-102.762010271831	-75.9296493803342	58.4118743958169	1.05493004962922	136.36801806235	
930000000	-2.82988873702274	174.089805524921	-95.0333256165367	-150.795449341961	-84.8599161113636	-154.075497635844	1.05934682133992	169.095296347752	
940000000	-3.46053491492252	153.340677092628	-78.8627007735998	-140.067885252715	-82.5783697663896	98.2682638732365	1.06419053960631	-158.206712446784	
950000000	-4.36429523032479	129.96441645413	-90.812169900729	93.3851086437234	-97.5803341859904	-3.36214935998494	1.06637832246419	-125.506415908119	
960000000	-5.40392172376084	101.967697887756	-80.1508248150371	-51.278649522781	-79.868323383104	-67.962202985477	1.06821849095404	-92.796577865829	
970000000	-6.07393104133313	70.6222709886517	-87.626404138735	-53.9373009794761	-83.9748516035743	17.0011521489703	1.07170210313465	-60.0836068183341	
980000000	-6.24207611206574	39.8562480921048	-75.1206141025161	113.938436496343	-77.2589377241469	-29.3113303878576	1.07441056200297	-27.3466305104599	
990000000	-6.3661413713664	12.6426695038842	-79.1750972583439	-132.783665592563	-92.9824275790674	-95.7257940011517	1.07990774848462	5.3631090940603	
1000000000	-6.63826654570241	-11.9099406734364	-84.5505994135044	150.610593796815	-89.5366617977951	-84.8415692657532	1.08244245159646	38.1103534559857	
1010000000	-7.1744675639927	-36.8818061542589	-78.455631457567	-148.984711370949	-83.278088039317	120.853819388933	1.08555526456091	70.8453810163964	
1020000000	-7.47928434062522	-63.3725964297207	-77.813917121659	5.74885606002772	-92.8674271398539	-119.146910968529	1.08810361348083	103.596098772307	
1030000000	-7.39296433778246	-89.5426897041809	-83.4419157712227	-23.445687618112	-80.5317614215163	141.543486527156	1.0938430954687	136.33050095686	
1040000000	-6.87180007890198	-111.95235998855	-83.5888041679856	113.284149564252	-76.5162495934739	-43.3838345443881	1.09647971723291	169.105179194307	
1050000000	-6.50276176908245	-129.518721458187	-97.0613468825451	86.298245377502	-88.5171465054025	-142.619398041883	1.09609293178609	-158.123676303471	
1060000000	-6.39890402893132	-143.941057706395	-82.4423328635859	-87.366471552708	-85.9698239544158	79.353305964939	1.10365076814916	-125.339470368497	
1070000000	-6.74310614658262	-157.3959664138	-85.9258049209759	101.328453086935	-81.3264882026257	108.382178078251	1.10379422874909	-92.5786361488566	
1080000000	-7.2735275449303	-171.884980112049	-76.3941609589137	-68.1863218736969	-101.022980249832	112.988378354734	1.10655849624722	-59.7873016234081	
1090000000	-7.91522017626806	171.039526551681	-81.676223653399	-111.232399918538	-82.9974758939579	123.1855812487	1.11359485553657	-27.0110068786513	
1100000000	-8.21075247429584	153.00121857212	-85.2714338258033	67.2063373297041	-90.917031593669	-107.642842059945	1.12052058477884	5.77266962146328	
1110000000	-8.22864315039276	136.286013267676	-102.867826753925	47.0302126954282	-81.4052303649146	-165.965620778457	1.12145227743929	38.5802103086443	
1120000000	-8.16171767216547	123.052587056972	-83.3107111221949	-168.208097063377	-85.4655219031809	-3.53831110463308	1.12526288748896	71.3717080018033	
1130000000	-8.25087780713703	113.014827021443	-76.0201312999644	-36.7520886333449	-79.4544807276439	-123.585425414947	1.13417960740721	104.180322936811	
1140000000	-8.80423431758973	104.801619138065	-88.1512443802548	-27.0159544730154	-73.5109493844567	-119.013754355245	1.1407304027578	136.990621661887	
1150000000	-9.79946398220857	96.262027315792	-81.0745884873115	161.801889784449	-71.9271275111516	-137.66319212194	1.15061065301126	169.820191249407	
1160000000	-11.123985285265	85.4122020030934	-83.5255379936592	-55.0299213309261	-78.2847402261875	-87.0232918734859	1.15571571226826	-157.376413578796	
1170000000	-12.469486304699	70.8668274803439	-82.2775897471937	-120.405271824158	-82.6777982386396	-93.5234713851204	1.16198765039185	-124.553031559279	
1180000000	-13.1760811074272	53.6620590987328	-87.5769869139947	143.554661764086	-88.0015458129391	-63.9571137114602	1.17260336060806	-91.7466373571764	
1190000000	-13.0786118982698	39.3214777523921	-76.7281138061333	-111.627457092571	-82.111978570791	164.918498138382	1.18236778876115	-58.9076929785149	
1200000000	-12.770172442436	30.5064531172005	-78.1730149541978	-0.0937054735311289	-73.8754674801256	73.7524502025175	1.18999693709144	-26.0785635246436	
1210000000	-12.6266144211411	26.2176139821578	-76.8312986276078	32.1656466962689	-80.1225909342793	83.9876777973644	1.2016653026009	6.7253635999512	
1220000000	-12.9707881133457	24.9510092204711	-76.0481865265344	124.678144684216	-91.9951259375966	82.8372405135521	1.2064211764304	39.5597893679124	
1230000000	-13.7971768328097	23.4486954292827	-77.7929556680067	107.880182375513	-71.5374937643734	151.418184878	1.22052400876973	72.3671869274112	
1240000000	-15.11742372521	20.465970169722	-78.4879983182131	95.0713450935633	-78.8436545030772	-13.5006286955508	1.2275937887334	105.177823543688	
1250000000	-16.611612578459	11.7953672552551	-79.6000630615772	82.6719049752927	-87.9649408828727	51.3835617783422	1.2387339063706	137.994491284443	
1260000000	-17.7106338010722	-3.31210604920125	-87.9445116814573	173.657623541339	-77.4370458552556	-20.0297488344437	1.2485230074365	170.825707888547	
1270000000	-17.2890880233006	-21.1593106882575	-70.3219740214655	118.502787574034	-79.5217535084358	-38.2594403970807	1.26282282322661	-156.378479156395	
1280000000	-16.0822333789676	-31.6038343890203	-77.7058714445618	-145.164472082518	-102.866651917723	-165.92623382818	1.27209009703003	-123.559922709974	
1290000000	-14.7874428355711	-36.9499314230632	-81.9782730817108	-33.5032023872628	-88.3501596785978	-7.94984523303861	1.28563293073473	-90.7765657532732	
1300000000	-14.1961537546727	-38.2337723633291	-77.8070550061738	172.232174578518	-96.2462656570186	28.4853421833798	1.29396380171529	-57.9821419673527	
1310000000	-14.1953854156302	-40.0242824988036	-83.3299637121332	-161.205253944585	-77.610979211096	-172.664040969747	1.30384499182657	-25.2299297397432	
1320000000	-14.9800367854585	-42.9990072177351	-79.4971994162682	119.021666841165	-83.8556386505804	-145.272573797538	1.31141221263159	7.54863107344794	
1330000000	-16.1365322014556	-51.7087005516441	-77.3700209789411	-130.014322926265	-75.5613625300409	-161.313102947165	1.32056171919449	40.314091896148	
1340000000	-17.4841557382445	-67.5616572436735	-76.8705495391155	161.732395429715	-77.2325479502317	175.404265738436	1.32969580546225	73.0833927076106	
1350000000	-17.4791551001981	-88.4421566873093	-84.4365675255138	-137.027448888169	-91.4225600448281	-145.352418823157	1.34193343647531	105.840554463034	
1360000000	-16.3303973380512	-104.952847882083	-83.4381121328018	144.789786081059	-82.702000004167	3.6059002225915	1.34767643190939	138.574158193389	
1370000000	-15.0527238522196	-113.56679115748	-81.8045632822924	-170.762933745714	-78.3810916524206	60.4399767495164	1.36180225718714	171.339681032634	
1380000000	-14.4366146138567	-118.02560523162	-79.0903490094159	148.702705009574	-81.0608457013589	-144.768942004944	1.3681598343704	-155.931896998625	
1390000000	-14.4986577295723	-119.949146225012	-83.0743939122462	-17.8113606825933	-95.353791413761	133.553624081146	1.37493865445055	-123.223380533901	
1400000000	-15.3404852534559	-123.282759828193	-83.1820037634895	-35.8766100344908	-78.3469786283036	122.826365547936	1.38404956829111	-90.4771028865659	
1410000000	-16.7996700989665	-128.786251066518	-78.9137665187937	64.1621315212252	-76.5097820214359	-100.958034514308	1.39202833953521	-57.7510691659777	
1420000000	-18.7936907310119	-142.330711456691	-85.2101957632661	161.142624612804	-79.716577703373	35.0522157983397	1.40117530049501	-25.0606983943038	
1430000000	-19.8778072959461	-161.823703304475	-81.2685234585159	135.544361665429	-84.4341822143437	-2.82994618492596	1.40683168930781	7.64421816876991	
1440000000	-19.6510775906666	178.086315872987	-73.7903821957133	79.9302893048881	-79.062093959446	-48.8609049948738	1.41322564161702	40.3662379961611	
1450000000	-18.7692701584203	168.620273140494	-78.9483819962273	58.6944530914037	-77.5150337459455	-13.1005956649467	1.41314174300372	73.0694217265815	
1460000000	-18.4007493785621	164.107791010221	-79.1567864176679	154.466557539791	-87.8275756176921	-153.414889939541	1.424091772171	105.732455714885	
1470000000	-18.7980003295624	167.145602325704	-94.8664761154711	-130.904893959668	-81.7600140840955	25.3991602286053	1.42932404880382	138.441783205505	
1480000000	-20.2459654735759	169.611350986709	-96.7359535359443	80.4639002780308	-78.9316969328289	115.814056374755	1.43505094129221	171.115044187212	
1490000000	-22.3981176023183	178.208790974795	-82.8642574764308	37.4967480200178	-71.9519948132551	3.62459323392155	1.44016976378859	-156.191810665889	
1500000000	-25.8934621638376	-169.375612649077	-78.1285911716657	99.3930765350139	-84.872149335365	-69.577152557076	1.44065745671932	-123.493874190788	
1510000000	-29.4286648420203	-149.769895188876	-95.2473988897623	-166.477590597922	-80.8873116033723	-128.283820407051	1.44639411735454	-90.8407239855655	
1520000000	-31.9381744307309	-128.08976766457	-81.3034050430887	106.127102572331	-76.6946107065152	165.848233366261	1.45013317523556	-58.1577678938445	
1530000000	-31.9741406984232	-122.56420866821	-76.2370415590885	109.148237299235	-76.8600416119654	-90.9059090485942	1.45426673237143	-25.4787845771725	
1540000000	-29.4593045396366	-139.516123484676	-80.3885346810971	-124.154739665095	-78.096710786999	104.180788143135	1.45028399930569	7.18931209847177	
1550000000	-25.133281673797	-151.370704895255	-80.0097561789804	-139.394531409012	-78.8712326558534	-14.5786349767195	1.45301454169477	39.8894771775304	
1560000000	-21.5831556440385	-157.338271228606	-80.7461962662712	-57.3430209335967	-76.9298193357887	-121.684514056788	1.45604807054598	72.5699936417907	
1570000000	-18.5241524246057	-160.34525487115	-70.8913696431277	-45.6392780763494	-81.3461558294178	-171.416841283807	1.45635923389228	105.252518107283	
1580000000	-16.4517441084167	-161.968682261539	-87.4680072446489	-8.64577318277456	-76.33089640454	156.109411583642	1.4631251066965	137.907513206778	
1590000000	-14.9501233851926	-164.625723095326	-77.7565641555854	-74.1456592055218	-88.5753741802896	-111.044519497533	1.45794712313493	170.617584968788	
1600000000	-14.0776227796363	-168.217638960251	-83.1859399727029	50.1611661304765	-85.0326771789693	-20.6903497224393	1.46339816706091	-156.697735071463	
1610000000	-13.5349073989094	-174.980443973424	-82.4699695940548	29.635463899868	-88.9659777462559	-127.949394045669	1.46254326962429	-124.028018108943	
1620000000	-13.1270999760056	176.921840329836	-81.9640684361165	-38.0784513188166	-87.0496512160222	-41.4458973179177	1.47056617503617	-91.3501195740197	
1630000000	-12.6902605756908	165.067766406858	-74.5973552248939	127.060086884979	-81.7609807763986	-150.416424749385	1.47035737916511	-58.6653125582865	
1640000000	-11.8945801702199	152.80294009605	-86.0700397744916	177.990470365439	-77.6055055093856	-151.050058990925	1.47477739567472	-25.9345360342064	
1650000000	-10.7875665298315	140.815745291955	-77.9491824662257	5.34463087571093	-82.6141655487735	-29.5384601712295	1.47687434144599	6.75973181218509	
1660000000	-9.60679418484987	130.352270588211	-83.2061383110015	164.064403805004	-82.7510281208042	58.815586773288	1.47470804118917	39.5142671543693	
1670000000	-8.41760243656394	121.378076633114	-84.2208471974383	-118.893148858477	-78.3201371267892	5.35302517735439	1.48196136660786	72.239423026353	
1680000000	-7.50217475237787	113.073655155943	-81.1142394335727	-2.14876888309368	-77.3783335749969	-174.525613302708	1.48640806260414	104.969971121963	
1690000000	-6.78013645315899	104.444111474086	-84.9588039258061	65.7516553055632	-81.192607504302	135.168171545001	1.48771039997968	137.691695202493	
1700000000	-6.3070403193373	94.6518869147044	-83.8055355559991	141.760054979756	-93.1525132895232	1.15225676101518	1.49697351335362	170.4491908219	
1710000000	-5.94654374090259	83.1916652968614	-88.7499135729495	132.659858108278	-77.1950694418718	-16.8162022778208	1.4981520308365	-156.796534245641	
1720000000	-5.54844007588179	69.680805359231	-77.7250750049346	-153.861626703	-94.7657781883792	11.3277367076017	1.50704006405772	-124.034538680626	
1730000000	-5.01189787288558	55.2423750817434	-102.289618944687	66.3195625247053	-88.575940614089	-24.7312573408333	1.51066302519805	-91.2513400281229	
1740000000	-4.36764478636804	41.4077397346801	-76.9109129722827	-86.4077784431256	-79.2317982437786	81.6764248949699	1.51546570355178	-58.4638024187153	
1750000000	-3.72624818753772	29.2705230489845	-80.7986741699554	-162.47873134405	-83.180886478757	-74.1211497513539	1.5210816500578	-25.6864577489365	
1760000000	-3.2289233086216	19.1293634184794	-78.7730099087657	-82.0294634611869	-81.4967247218432	9.44727150274002	1.52949717169938	7.10023849426528	
