!Keysight Technologies N9923A: A.08.18
!Date: Friday, 22 December 2017 11:52:26
!Timezone: (GMT-05:00) Eastern Time (US & Canada)
!Model: N9923A
!Serial: MY52412517
!GPS Latitude: 
!GPS Longitude: 
!GPS TimeStamp: 0001-01-01 00:00:00Z
!GPS Seconds Since Last Read: 0
!CHECKSUM:1693884248
!Correction: S11(ON Q)S21(ON Q)S12(ON Q)S22(ON Q)
!S2P File: Measurements:S11,S21,S12,S22:
# Hz S DB R 50
500000000	-0.0211034459500861	-134.511877209057	-88.0725202162131	-91.8007040681335	-92.7276297558636	152.359858717037	0.691427642361715	-159.229278087167	
510000000	-0.0188701046071539	-135.514192362334	-79.2926337942647	-40.6150250957868	-83.4766820763791	-135.769339893398	0.697086931628133	-126.40707340684	
520000000	-0.0522613136172814	-136.846009348949	-77.0144816417472	137.598710440276	-84.5310589514766	-49.7582295839303	0.703831690113115	-93.5892266686168	
530000000	-0.106466281145282	-138.977010663044	-85.755432847741	-62.3537798621983	-78.1910432601587	-29.0568985402026	0.709268571171434	-60.7971927812999	
540000000	-0.175619321704132	-142.102236841635	-75.428723946413	-102.408860505982	-76.0285460262938	173.593515129202	0.714177452391959	-27.9811668860667	
550000000	-0.230073455235344	-146.145724298704	-83.0659013873524	75.5673218405523	-91.5028443142093	-84.5535376711807	0.719712413748408	4.82676957567488	
560000000	-0.248134110140579	-150.540727560769	-78.9601418388383	17.8028825418353	-80.2550751361482	-30.9901865789792	0.729772721611348	37.6407408766514	
570000000	-0.229499895089889	-154.630143338585	-84.4413069089713	-80.5215322414198	-76.5298182135466	-30.7588620256812	0.735396567696731	70.4361791851683	
580000000	-0.187582715334472	-157.774769376734	-82.1276700747455	-124.859223279104	-83.0623106262277	139.608681266899	0.741632464731905	103.246784682733	
590000000	-0.128221368704825	-159.922325198862	-86.2412326627041	88.236142762569	-79.989665918263	30.533054768033	0.7488948450654	136.065114768983	
600000000	-0.0797307194158125	-161.266287695038	-86.7537311646976	86.4685717727188	-73.8044113535471	14.1348304843928	0.758258113412509	168.879716034779	
610000000	-0.0560522477172807	-162.314558071682	-78.3673447124403	67.020666732266	-76.3664301623101	-65.3040814994634	0.766692995806068	-158.325297165741	
620000000	-0.0716523538854264	-163.686498526462	-80.1770522700715	-11.91050127598	-88.5001588051852	-176.909712214681	0.774758136233799	-125.541245333189	
630000000	-0.12448059502453	-165.838686368076	-70.254520376132	-95.0359463215362	-83.6667465404594	95.7579644032639	0.782864982544953	-92.7385058242772	
640000000	-0.195863099461358	-169.005071921831	-77.2888479917925	134.076627769146	-74.7488402761821	-89.8082350349994	0.795339960723218	-59.9539988809924	
650000000	-0.264053070681469	-173.014734223625	-72.9483414941453	18.6357071280434	-81.8409840675538	92.040328275838	0.803953270188136	-27.170884306236	
660000000	-0.305132650923703	-177.313673809477	-80.3383546011112	-32.9359939022522	-85.2143754885705	110.353329961972	0.808391299012232	5.6124201063983	
670000000	-0.300635886858359	178.777674894029	-79.3462220127136	-34.4412770361921	-85.4887939130293	154.711999993736	0.819541586725147	38.3982067935817	
680000000	-0.248118830020224	175.756491772712	-84.5311331428981	157.725919023089	-79.0777864557114	89.5370733506505	0.83386665683406	71.1589010150262	
690000000	-0.170136398343773	173.667129519757	-80.6630172371187	-45.7343853291126	-81.309359540218	-101.254959488773	0.840857475928272	103.924096807614	
700000000	-0.104006099072769	172.358277036598	-82.5465207472685	73.0174972270976	-75.2156493763169	36.8410963973482	0.853776844233403	136.684029650044	
710000000	-0.0648525978546509	171.252135241336	-73.977042898089	152.801394688385	-79.5825407032945	47.639798490531	0.860270917185031	169.468559971953	
720000000	-0.0734445089884059	169.855316056951	-80.0845677059523	129.89570875526	-73.1255387792587	-98.9383261481175	0.87380667370556	-157.810907779095	
730000000	-0.132084510701275	167.735412274184	-88.6292252278477	79.4393982880682	-74.6794261161932	157.000583168855	0.883618835704784	-125.029568747511	
740000000	-0.223858284104248	164.681626680749	-77.2485631906435	-13.8918378253247	-80.7369928959142	108.972715346549	0.891476750986102	-92.3006764044088	
750000000	-0.324175092644512	160.854894079064	-73.9392303788723	-13.6620738508162	-77.8378409668746	34.2007971331992	0.903997020827001	-59.5801747605132	
760000000	-0.377654940433731	156.657475283507	-90.7431425608674	-134.095978297379	-87.6599425927683	34.3305325584039	0.913343724819844	-26.871309527402	
770000000	-0.373259962441596	152.645316977622	-80.8049292458117	66.2735687566865	-75.2327960856434	-159.076269007242	0.93063491444745	5.85273272871386	
780000000	-0.316394407632051	149.29293779006	-78.0345997321789	26.2894022395675	-72.9144404673005	-102.932687198113	0.93828684707102	38.5930688966758	
790000000	-0.227706801154346	146.719509660257	-74.2648020510515	65.5924609382864	-76.3878314134636	121.605944282293	0.948874515161851	71.2674987961122	
800000000	-0.146625381728028	144.667282293024	-77.4917167994364	128.280681742772	-73.3626652818219	-62.3292521394871	0.959944989964042	103.994395063237	
810000000	-0.11382870031452	142.801457021622	-80.4192144841623	-105.839771172608	-90.1756234094128	-85.4178462524939	0.97110116336664	136.683273832151	
820000000	-0.142698190848555	140.757189710563	-84.2608152857483	-136.182231233523	-89.6338304178673	-2.32606493538612	0.981588973837831	169.383908696139	
830000000	-0.238703632605448	138.067990641184	-77.4555121881231	-173.285996947605	-83.4798907984411	63.3438419924278	0.992889530644885	-157.911910000111	
840000000	-0.38382777366026	134.587699300244	-94.345276109306	-172.852652151836	-81.7146569085381	-69.3915835030063	0.999515825443808	-125.1995473427	
850000000	-0.522100225187536	130.294889858608	-79.6174811696006	37.242005095715	-79.7661567771017	151.674575991837	1.00950611029262	-92.5232022756978	
860000000	-0.616763975786802	125.501631654308	-77.5896571903775	108.834202775702	-102.791756401428	170.260175595726	1.01681794526143	-59.8147709053039	
870000000	-0.665458070494774	120.683657040644	-80.4674644881677	72.3785462904472	-72.6892249279766	-112.777425382442	1.02004989431596	-27.1260106087903	
880000000	-0.669234952427152	116.341575504214	-86.0193083152707	17.2229902793561	-78.8852717157636	-77.876887979157	1.0290557440511	5.5886782251271	
890000000	-0.66780196267785	112.698508724117	-103.299904117872	14.8239369674475	-76.9737294641536	44.6458213727371	1.03879652356724	38.2828227457629	
900000000	-0.705003660363743	109.811065103024	-77.6786737363991	62.400555156533	-77.0837520084478	-60.4014454592526	1.03823409097588	70.9772510677131	
910000000	-0.802902835412459	107.422603567767	-81.1838773337313	156.964512034545	-84.8146893593692	143.422719155264	1.04796938110406	103.666223944212	
920000000	-0.96572945968436	105.113046763917	-76.7172575190807	131.636847738224	-75.9753627631565	88.8828978427625	1.0516413183506	136.3608849041	
930000000	-1.25844680003364	102.24905154229	-82.7450621992042	-164.405556905578	-89.3086022502486	-42.0511894245351	1.05664310956611	169.081683673078	
940000000	-1.59939683793405	98.936724962526	-80.483866972728	-67.8523850387022	-87.4844276825776	178.490937259554	1.061532044582	-158.220169995359	
950000000	-1.9806370298614	94.8741070130877	-91.4361650000845	-149.733871945325	-87.9003054414175	164.865735154305	1.06352731233287	-125.51547562108	
960000000	-2.38156239663469	90.259270304314	-72.5968934198969	123.565909802129	-80.4960634324875	62.5979288712994	1.0661419685827	-92.8048192334639	
970000000	-2.72438391736419	85.780807343981	-78.1273676295711	79.4720966753456	-81.8186608809201	-51.6305228646395	1.06862277490882	-60.0832578485354	
980000000	-2.97321881905796	81.8397832688423	-81.7547818733024	119.516666532265	-80.2220519306967	52.7258347061315	1.07196931847848	-27.3565674687103	
990000000	-3.19854310415116	78.5931465728004	-94.9581171581079	22.8121174614057	-80.5519585193579	165.585822190347	1.0770842529147	5.35389151441005	
1000000000	-3.44559853489484	76.4170057787325	-77.9740422960288	-130.825356196519	-86.7584241621476	-76.3142388867335	1.08133422272137	38.0921044119834	
1010000000	-3.81131328341725	74.5954413427981	-74.7452615794519	-135.906120217468	-79.8809798684101	20.4613942533283	1.08638988885515	70.8348607914186	
1020000000	-4.36145635634564	73.1218785515709	-86.0121748655987	-147.828800000444	-86.0585169317132	-53.3683505434892	1.08590638746821	103.580489913936	
1030000000	-5.31684259403792	72.2549098696737	-78.4871072223945	-5.42782772434	-77.3418254784471	144.672445382522	1.09261983051802	136.30626749054	
1040000000	-6.22848111792554	72.1299604822105	-82.7719174806168	83.2068165367049	-89.4517315366031	-164.136930815655	1.09412999699519	169.094882859483	
1050000000	-7.33127147729094	73.1450793916769	-76.462531216908	-175.274148250844	-82.9641539223214	-173.122245706642	1.09558745289635	-158.135506846189	
1060000000	-8.10664790260827	74.8488162840623	-90.9551390143846	19.3010618334525	-78.6855688982059	-76.8137682691144	1.10185938889763	-125.348781381678	
1070000000	-8.38373282583234	76.1064439147211	-93.8507704549304	-70.6192749288745	-76.975423951656	82.988642491916	1.10374039905602	-92.5811698194167	
1080000000	-8.27285189279553	77.4352720517939	-71.4890952611878	124.669799360972	-75.738195800096	52.3666927521107	1.10798899700989	-59.7977221812469	
1090000000	-7.6646862855831	79.6790976416548	-86.1973431640465	105.291661676772	-85.1713545666877	-79.8602073610456	1.1140581656822	-27.0139090781195	
1100000000	-6.97347924512505	80.4395418207324	-76.5660130165801	-119.796617665688	-88.2381504466376	38.219760004092	1.12265733835392	5.76926780966203	
1110000000	-6.36562739029675	81.723658691075	-85.9700864620246	30.7356549495059	-80.004874429233	117.84262789296	1.12374444254194	38.5728224728497	
1120000000	-5.79649963676346	83.2262304010544	-77.6937317344656	-110.822746326646	-84.9019269225732	1.92734595703856	1.1269084305263	71.3731643729499	
1130000000	-5.52634413455951	84.4025639555224	-80.2826289504604	-38.5959999873095	-82.5650962662181	96.6609893819297	1.13634232467455	104.185524160299	
1140000000	-5.36583918499292	84.2626234533286	-84.4337481353924	2.85715218363203	-87.527695451996	123.047661635266	1.14185952164151	136.981794683068	
1150000000	-5.43172404762823	82.9219038761346	-82.2794759179249	-119.118928163711	-76.7175073309129	169.863224924368	1.15119404281635	169.81948527242	
1160000000	-5.43449989027502	79.4350964502068	-82.784686602433	-36.0628297514882	-83.6305689336142	-170.042341344331	1.15916749823619	-157.37319433172	
1170000000	-5.41956520984324	74.8161360201791	-78.5617782197526	-130.326553322011	-81.6714567010497	101.915562111176	1.16649397183294	-124.555319473003	
1180000000	-5.23131078192933	69.1630011301919	-90.4135924438359	-0.71524724241657	-80.1759998237937	-156.775884834795	1.17393571210952	-91.7424770506867	
1190000000	-4.87227724911402	64.3971269230376	-77.9569987247564	-77.8209853021389	-83.3785485783575	66.045663299302	1.18364946494099	-58.8982377620931	
1200000000	-4.4651504440155	60.7595015693044	-78.3267621807949	-133.652872002357	-85.7303093209878	111.524716572498	1.191916892671	-26.0743668512855	
1210000000	-4.10250547429619	58.8230622047524	-77.8767552672781	-114.013493890012	-83.3045461637223	95.4992305591308	1.20254046517313	6.7265470323723	
1220000000	-3.82831334661456	57.8605781153658	-76.5692554607986	27.3948828066131	-80.4234211291393	120.996416235324	1.20769800129977	39.5754541534855	
1230000000	-3.75091938907499	57.1324750160872	-81.1468970796117	-119.382874866728	-81.4629911846318	-95.3090268176982	1.22180628410997	72.3801363204072	
1240000000	-3.83652819737289	55.8851646935802	-74.1070394311778	-178.674709178933	-85.4436595537609	153.770991727734	1.2279452604674	105.19063957178	
1250000000	-4.07191056316025	53.340223817027	-89.5086204963226	-69.7358421974636	-79.989611729617	62.7406342685763	1.24015455812896	138.00630786203	
1260000000	-4.2929492975436	48.7922739667361	-71.530622796298	25.9255658677959	-79.8037834471223	-4.51925558141749	1.24712293976894	170.8371957386	
1270000000	-4.50046584692559	42.7094115402433	-75.7504510340304	-122.106757890581	-85.4298726138059	-90.4880500538172	1.26227448418172	-156.371684472855	
1280000000	-4.52964477465015	36.2832943867727	-76.4162536993916	-12.4154664947492	-85.3959940254194	-155.980763004111	1.2715867711195	-123.545336788733	
1290000000	-4.42389174923059	30.7836164497758	-75.5032716822571	69.5518017311525	-77.0750057318698	166.054863623375	1.28329817174873	-90.7605734021575	
1300000000	-4.30124021755284	26.7528547126243	-75.0533530407606	-71.5023427953569	-83.7498457975544	-30.5739241753504	1.29183004416691	-57.9808300842239	
1310000000	-4.28035229941347	24.4787497972281	-71.4209091826797	-82.73736296789	-77.8596734142927	-13.5478107834067	1.30200041677878	-25.2231668040815	
1320000000	-4.40058489075099	23.5420208631033	-89.028824167203	-39.6739592621208	-84.5860516937888	-83.1318306133999	1.31146413238572	7.56649275126435	
1330000000	-4.77972678932184	22.7267868420435	-72.8268312720766	-15.8226306794691	-75.2603529349955	-74.4992035117218	1.32088896743461	40.3232381783782	
1340000000	-5.38236800146048	21.3629319840009	-86.8021067183211	-94.9194734988643	-72.3793478554138	-58.6299397851178	1.32757319233028	73.0902808951718	
1350000000	-6.16620635403831	18.9095076206936	-77.1802714406738	25.7756193495152	-79.4568069914395	84.3913771352835	1.33685431996559	105.858048826066	
1360000000	-6.95401694688777	14.8579979543037	-76.452975224821	-53.1792518320186	-86.6757077626203	55.4097588267608	1.3454157249518	138.580377332453	
1370000000	-7.74278437822804	9.49210464766968	-80.823714070048	69.8052282138954	-77.6246853809726	123.323368920082	1.35797866928038	171.341110168112	
1380000000	-8.18187478621401	4.84347872277425	-88.4434440570341	140.302443412447	-88.0483526759484	-24.4007660098975	1.36566548767636	-155.917406477589	
1390000000	-8.37048168651831	2.52467322372518	-82.4011032212786	81.2533948708601	-78.4318730920587	-1.91868284122493	1.37373476939417	-123.227945097143	
1400000000	-8.47051615138265	2.38444366104515	-87.2277992524895	-63.2699931054507	-74.9467196672363	107.811124575091	1.38077389010885	-90.4588280417059	
1410000000	-8.57503487697758	4.6784403448588	-77.1835709806922	11.7941903732132	-87.7799820149128	-35.6801406711769	1.38984952202196	-57.7521036641441	
1420000000	-8.60559244743271	9.90219226117943	-82.356219209934	110.831326801897	-79.68946123128	178.084407484451	1.39599861075186	-25.0578896746797	
1430000000	-8.88740409008251	14.2572061142789	-86.7762516622235	98.9806714366357	-79.7294192418529	141.542012205466	1.39840402640248	7.6446421928679	
1440000000	-9.12515113445052	19.6551683834448	-76.5727133019963	-151.218071267465	-74.6918624638832	-103.742471253319	1.40925895966507	40.3671623444545	
1450000000	-9.35551987128915	22.8754236886555	-76.9086123750618	175.108556459782	-95.9100534064106	-164.790746152056	1.40908206945256	73.0682097038036	
1460000000	-9.59215286477757	24.2260091273315	-74.3859511765639	110.175047206879	-71.8752300519235	74.5934582292328	1.42018517278524	105.721645393725	
1470000000	-9.67550875384292	22.7739622620317	-72.6980849534221	-57.5720837357893	-83.5968421479971	108.881951145893	1.42507719235528	138.432986555081	
1480000000	-9.41989418231994	20.1332587459372	-77.9555808764604	-85.5504030252654	-71.9551246505275	121.752193624336	1.42920897375301	171.102062886709	
1490000000	-8.96278835858477	16.0448354805739	-74.5184311760495	138.528626922827	-72.8281031236078	107.536589240061	1.43461716844904	-156.190290647768	
1500000000	-8.26615151885003	13.5111673842731	-80.7771520622732	31.2601154715412	-82.7619089031275	-128.693967964935	1.43590271399432	-123.496951872032	
1510000000	-7.58096226209773	11.7330192759595	-76.3457073660635	141.311791210274	-74.6851361284155	-156.949487122851	1.44095041086703	-90.8446471845183	
1520000000	-6.97711437662926	11.1597582500956	-71.8682188561613	157.914606867962	-73.2478572347675	-20.9464861643292	1.44650815643601	-58.1527857868907	
1530000000	-6.58887506853232	11.0673337953369	-84.5323599974592	-167.900715062426	-77.4536712485703	-173.063896099876	1.449358932739	-25.4729227492949	
1540000000	-6.32682200739966	11.139955058653	-86.4472800258109	-146.474430201581	-76.3397285588898	-149.499329417798	1.44717284557809	7.18713605479963	
1550000000	-6.31202540009815	9.67409017558766	-74.7662245118891	161.155477247687	-73.7194500403926	-125.975547589526	1.45194581645972	39.8669285671418	
1560000000	-6.37647975083372	7.79598734395088	-74.7451061712238	-113.61329473112	-82.0296400022096	-17.4944423113414	1.45396968568897	72.5620836647383	
1570000000	-6.48302089164527	4.38047017791869	-76.8698793618651	-80.6731856815556	-90.5632239352556	-167.137009665871	1.45458374052842	105.240631065487	
1580000000	-6.52196940496393	-0.187172743597731	-79.1234677102335	100.428489552563	-78.513247894738	133.318664270871	1.46169664329423	137.905683977501	
1590000000	-6.43520495652073	-5.15199894148835	-82.4487337372846	53.5622971634892	-74.22092995733	123.184892474437	1.45494472935785	170.610137900911	
1600000000	-6.28234330990651	-10.1987889287755	-73.9989734023051	125.900430930229	-75.205203400825	-166.985804080026	1.45996097836533	-156.705180131645	
1610000000	-6.02329661529486	-14.8002083070542	-82.2010258285246	175.584865420057	-78.9413642025894	163.83699419218	1.46159609430837	-124.033921875586	
1620000000	-5.77659626348063	-17.9954829372554	-75.1459987207584	159.919398693241	-80.6572768847165	-162.497055458008	1.4684021272442	-91.3653264586197	
1630000000	-5.70641567739197	-20.1513763026613	-75.6027683268399	170.661646695995	-97.0225506387864	-121.09860215642	1.46812420154375	-58.6733166672109	
1640000000	-5.79054944734551	-22.2165683675818	-77.6310055766006	142.736074915416	-89.3253213219375	-166.969068104103	1.47230324920503	-25.9587189434805	
1650000000	-5.93791347787218	-23.5472297117359	-89.0648858677176	116.941802743429	-96.1025664069156	-173.967746591965	1.47598163202957	6.7680319883883	
1660000000	-6.35567054892133	-24.9492253385404	-77.5504907558622	-167.713835853352	-82.6912852706504	-142.7539202604	1.47739934139278	39.509187142409	
1670000000	-6.79233359417618	-27.4215364423709	-92.2203398833341	175.294335094438	-77.4946055927729	-177.667397484263	1.4833715756944	72.2392760392659	
1680000000	-7.39266901844537	-30.7649348550385	-90.4528857782894	169.756393554176	-80.2959394064408	109.367552694282	1.48528869928038	104.950813271476	
1690000000	-7.87446888961464	-35.3057364808304	-74.734257470974	-177.375537934723	-76.9501529505693	-152.93532913193	1.48920926816024	137.699983690446	
1700000000	-8.33526814172134	-40.4479611518819	-80.9003100205406	163.929433586183	-77.7196744066167	174.942396588377	1.49214462015953	170.486207830425	
1710000000	-8.65620589025917	-44.9724204176994	-86.410070750089	42.9709486849951	-83.0106689919911	-88.5869607894281	1.49859288329648	-156.780123198499	
1720000000	-8.99590116645128	-47.8962028351522	-76.0619273088886	-82.8435537385371	-85.1150213487196	-177.628871280973	1.50913590491764	-124.019025628345	
1730000000	-9.32944458829734	-47.7079434516367	-85.192128056727	132.51066921944	-78.4362817513922	-154.791982657245	1.50874568456127	-91.2384463027233	
1740000000	-9.86337111957135	-44.0857445651436	-93.2503796250256	-170.321311892909	-84.1870163998605	170.988781142498	1.51504059295807	-58.4866731104825	
1750000000	-10.8508727212623	-34.8281828021056	-79.5828442152054	-104.641471394282	-77.5763529823347	-122.071804950194	1.52831527253597	-25.686020481832	
1760000000	-10.2873078390322	-24.4846321723738	-78.2591318902105	-58.4906443396219	-81.9976530120292	-51.6548512303266	1.52799773647194	7.12401607968574	
