!Keysight Technologies N9923A: A.08.18
!Date: Tuesday, 09 January 2018 16:49:41
!Timezone: (GMT-05:00) Eastern Time (US & Canada)
!Model: N9923A
!Serial: MY52412517
!GPS Latitude: 
!GPS Longitude: 
!GPS TimeStamp: 0001-01-01 00:00:00Z
!GPS Seconds Since Last Read: 0
!CHECKSUM:1349432980
!Correction: S11()S21()S12()S22(ON U)
!S2P File: Measurements:S11,S21,S12,S22:
# Hz S DB R 50
500000000	0	0	0	0	0	0	-0.0577426481634953	-106.304077927167	
510000000	0	0	0	0	0	0	-0.105674999222741	-106.484195612693	
520000000	0	0	0	0	0	0	-0.172662930822041	-107.986254060471	
530000000	0	0	0	0	0	0	-0.245177910303431	-111.013627010679	
540000000	0	0	0	0	0	0	-0.317032685689026	-115.344768809275	
550000000	0	0	0	0	0	0	-0.345056637695213	-120.244217638648	
560000000	0	0	0	0	0	0	-0.331341296240189	-124.669686314773	
570000000	0	0	0	0	0	0	-0.275180751155345	-127.779064182295	
580000000	0	0	0	0	0	0	-0.199833047416517	-129.153294431343	
590000000	0	0	0	0	0	0	-0.119377825529409	-129.077927464873	
600000000	0	0	0	0	0	0	-0.0600072941643778	-128.385962937437	
610000000	0	0	0	0	0	0	-0.043352962515897	-128.067013690331	
620000000	0	0	0	0	0	0	-0.0917039337194169	-129.053464968729	
630000000	0	0	0	0	0	0	-0.182674136577241	-131.662550654517	
640000000	0	0	0	0	0	0	-0.294259017471551	-135.843076775906	
650000000	0	0	0	0	0	0	-0.388831559386204	-140.875455234695	
660000000	0	0	0	0	0	0	-0.428626377471615	-145.761337404739	
670000000	0	0	0	0	0	0	-0.402911367481675	-149.510658578118	
680000000	0	0	0	0	0	0	-0.303471203777194	-151.460889119319	
690000000	0	0	0	0	0	0	-0.167408761298693	-151.679898152586	
700000000	0	0	0	0	0	0	-0.0455632903357678	-150.787426629039	
710000000	0	0	0	0	0	0	0.007553783711124	-149.807717231226	
720000000	0	0	0	0	0	0	-0.031602019141039	-149.821902387804	
730000000	0	0	0	0	0	0	-0.160222163142842	-151.513162438444	
740000000	0	0	0	0	0	0	-0.346207588886932	-155.010989692395	
750000000	0	0	0	0	0	0	-0.516429785614729	-159.83373855375	
760000000	0	0	0	0	0	0	-0.604015550876782	-165.198086849494	
770000000	0	0	0	0	0	0	-0.574212503796544	-169.965515007582	
780000000	0	0	0	0	0	0	-0.427520508775349	-173.289304213935	
790000000	0	0	0	0	0	0	-0.212556171272224	-174.80466626109	
800000000	0	0	0	0	0	0	-0.0379383436105169	-174.772381995807	
810000000	0	0	0	0	0	0	0.0323145419592436	-174.009391897853	
820000000	0	0	0	0	0	0	-0.0317576024096312	-173.781873792658	
830000000	0	0	0	0	0	0	-0.215676142743515	-174.918782283183	
840000000	0	0	0	0	0	0	-0.46264193617222	-177.867651561085	
850000000	0	0	0	0	0	0	-0.687686802109678	177.390533021904	
860000000	0	0	0	0	0	0	-0.819913716231079	171.516809113318	
870000000	0	0	0	0	0	0	-0.817269528903332	165.588069542296	
880000000	0	0	0	0	0	0	-0.733464559373247	160.594207321062	
890000000	0	0	0	0	0	0	-0.62272187487941	157.206367511375	
900000000	0	0	0	0	0	0	-0.566678812439477	155.498170491902	
910000000	0	0	0	0	0	0	-0.657012999788527	155.143167682857	
920000000	0	0	0	0	0	0	-0.942514888445843	155.3302775438	
930000000	0	0	0	0	0	0	-1.3704439761919	154.790207150049	
940000000	0	0	0	0	0	0	-1.8356968988827	153.016056379529	
950000000	0	0	0	0	0	0	-2.33197670232978	148.971957511396	
960000000	0	0	0	0	0	0	-2.81300911223677	143.538446397555	
970000000	0	0	0	0	0	0	-3.13400984716384	138.560697709869	
980000000	0	0	0	0	0	0	-3.35342319273976	133.483263409423	
990000000	0	0	0	0	0	0	-3.38210113170476	128.906101271224	
1000000000	0	0	0	0	0	0	-3.76147555147416	127.853170379637	
1010000000	0	0	0	0	0	0	-3.98171520841353	128.386108129902	
1020000000	0	0	0	0	0	0	-4.70137279818193	128.857249153082	
1030000000	0	0	0	0	0	0	-5.58300084931233	131.304612074196	
1040000000	0	0	0	0	0	0	-6.497310361603	135.911361962912	
1050000000	0	0	0	0	0	0	-7.24346512026689	138.673734131642	
1060000000	0	0	0	0	0	0	-8.24447258417653	134.727166240379	
1070000000	0	0	0	0	0	0	-8.40231645141495	135.413203056338	
1080000000	0	0	0	0	0	0	-8.79789083096965	136.286644275411	
1090000000	0	0	0	0	0	0	-8.4450751222033	136.676546764742	
1100000000	0	0	0	0	0	0	-7.5145165905333	139.756218163066	
1110000000	0	0	0	0	0	0	-6.57365574846919	139.836627783271	
1120000000	0	0	0	0	0	0	-5.96968929552358	143.689695339809	
1130000000	0	0	0	0	0	0	-5.44717940048962	146.583874016028	
1140000000	0	0	0	0	0	0	-5.35317897587942	148.310166496939	
1150000000	0	0	0	0	0	0	-5.44668474506945	153.441265808104	
1160000000	0	0	0	0	0	0	-5.26828233068658	150.726990290866	
1170000000	0	0	0	0	0	0	-5.34690660061159	145.87802342205	
1180000000	0	0	0	0	0	0	-5.06673589176503	139.643646451357	
1190000000	0	0	0	0	0	0	-5.03737260121122	131.21455762544	
1200000000	0	0	0	0	0	0	-4.65836855988166	125.77459026829	
1210000000	0	0	0	0	0	0	-4.32338748148261	122.358157415267	
1220000000	0	0	0	0	0	0	-4.06990974788959	121.925170304064	
1230000000	0	0	0	0	0	0	-3.68056250697265	123.111509259397	
1240000000	0	0	0	0	0	0	-3.82559897567912	124.813842464068	
1250000000	0	0	0	0	0	0	-4.12017334109072	125.311750739598	
1260000000	0	0	0	0	0	0	-4.62304252690521	124.068465732171	
1270000000	0	0	0	0	0	0	-5.18399635769816	120.186394052118	
1280000000	0	0	0	0	0	0	-5.44401737352587	111.500028656721	
1290000000	0	0	0	0	0	0	-5.5633658911247	104.330250812681	
1300000000	0	0	0	0	0	0	-5.43660230915751	97.6005170460484	
1310000000	0	0	0	0	0	0	-5.31216395395044	93.0853111011799	
1320000000	0	0	0	0	0	0	-5.13607499412586	93.9310958624858	
1330000000	0	0	0	0	0	0	-5.10700318347944	93.4603730339176	
1340000000	0	0	0	0	0	0	-5.48712559936791	95.8504008731477	
1350000000	0	0	0	0	0	0	-6.40662476407377	100.310952611115	
1360000000	0	0	0	0	0	0	-7.58155084794998	103.567921086769	
1370000000	0	0	0	0	0	0	-8.11095341746477	98.1620269406922	
1380000000	0	0	0	0	0	0	-9.50723333523867	93.7717788989317	
1390000000	0	0	0	0	0	0	-9.9003322118993	91.3451870181602	
1400000000	0	0	0	0	0	0	-9.00807550755306	85.1219938880753	
1410000000	0	0	0	0	0	0	-8.77535328816831	85.4987092603392	
1420000000	0	0	0	0	0	0	-8.86644760669107	86.1327570178325	
1430000000	0	0	0	0	0	0	-8.1773062038695	92.401889156657	
1440000000	0	0	0	0	0	0	-7.86324635700867	100.070429483443	
1450000000	0	0	0	0	0	0	-8.37930500419293	106.499715190931	
1460000000	0	0	0	0	0	0	-8.7142053709697	116.873534375095	
1470000000	0	0	0	0	0	0	-8.66748417040419	119.461081590507	
1480000000	0	0	0	0	0	0	-9.37133771474345	116.290123654024	
1490000000	0	0	0	0	0	0	-9.42906838684523	109.12377435469	
1500000000	0	0	0	0	0	0	-8.895079017108	104.022165334383	
1510000000	0	0	0	0	0	0	-7.98410332925269	96.8446713111555	
1520000000	0	0	0	0	0	0	-7.41236602828613	95.295852285893	
1530000000	0	0	0	0	0	0	-6.25026729997981	93.6357381780432	
1540000000	0	0	0	0	0	0	-5.78692268165336	93.0929024909649	
1550000000	0	0	0	0	0	0	-5.35935689341002	94.5082021584826	
1560000000	0	0	0	0	0	0	-5.56974283377921	97.0718240732097	
1570000000	0	0	0	0	0	0	-5.86093966205942	95.6476071511021	
1580000000	0	0	0	0	0	0	-6.29042680270275	95.9140115342091	
1590000000	0	0	0	0	0	0	-6.55335412755978	90.8529757771598	
1600000000	0	0	0	0	0	0	-6.45618153820639	83.92411967899	
1610000000	0	0	0	0	0	0	-6.14235436811466	77.283796531384	
1620000000	0	0	0	0	0	0	-5.91840174121416	73.4317684241185	
1630000000	0	0	0	0	0	0	-5.44657396940636	68.8852427670114	
1640000000	0	0	0	0	0	0	-5.32730718956828	67.3632694003505	
1650000000	0	0	0	0	0	0	-5.56396950490803	67.0052782434973	
1660000000	0	0	0	0	0	0	-5.7268817710786	67.0739521334999	
1670000000	0	0	0	0	0	0	-6.36364378204768	68.9957038532912	
1680000000	0	0	0	0	0	0	-7.1534392346715	68.4533192501111	
1690000000	0	0	0	0	0	0	-8.06580382872437	66.530439811378	
1700000000	0	0	0	0	0	0	-8.7412248973038	64.5065252133602	
1710000000	0	0	0	0	0	0	-8.95220786284884	57.4101477632068	
1720000000	0	0	0	0	0	0	-9.39706461141825	54.2589836821793	
1730000000	0	0	0	0	0	0	-9.3780046863515	55.6776741086696	
1740000000	0	0	0	0	0	0	-9.39803296779884	62.8925050722617	
1750000000	0	0	0	0	0	0	-6.0167821677553	68.8072281408702	
1760000000	0	0	0	0	0	0	-7.78186843869445	59.9508558748634	
1770000000	0	0	0	0	0	0	-8.22745759823737	72.8764035371403	
1780000000	0	0	0	0	0	0	-8.24643418038753	82.7523197549554	
1790000000	0	0	0	0	0	0	-7.93570047734437	96.0211571466617	
1800000000	0	0	0	0	0	0	-7.41833065965444	100.16432705131	
1810000000	0	0	0	0	0	0	-6.60507439473534	95.9749763945084	
1820000000	0	0	0	0	0	0	-6.07828141288953	86.6974135618341	
1830000000	0	0	0	0	0	0	-5.13482186974036	76.6901231061549	
1840000000	0	0	0	0	0	0	-4.1532443499185	67.5605170258194	
1850000000	0	0	0	0	0	0	-3.47169121610275	60.8723021007877	
1860000000	0	0	0	0	0	0	-3.04146298690248	57.6524055431678	
1870000000	0	0	0	0	0	0	-2.75896864682625	56.2062760331306	
1880000000	0	0	0	0	0	0	-2.65250399631907	56.5279421347219	
1890000000	0	0	0	0	0	0	-2.59970884439057	56.5665869653612	
1900000000	0	0	0	0	0	0	-2.64091580842455	52.2027752635992	
1910000000	0	0	0	0	0	0	-3.35863392036002	43.0434380932766	
1920000000	0	0	0	0	0	0	-3.96560791708193	34.8645359815126	
1930000000	0	0	0	0	0	0	-4.36271942278521	27.1589998740313	
1940000000	0	0	0	0	0	0	-4.7901347009598	23.1635480893543	
1950000000	0	0	0	0	0	0	-5.26309614873587	23.6479300899771	
1960000000	0	0	0	0	0	0	-5.460182284481	26.2832487731992	
1970000000	0	0	0	0	0	0	-5.71810542850709	32.1264339328455	
1980000000	0	0	0	0	0	0	-5.8663040649297	38.0582211627064	
1990000000	0	0	0	0	0	0	-6.06946758365615	42.8860210723218	
2000000000	0	0	0	0	0	0	-6.73267829020886	48.7632138059241	
2010000000	0	0	0	0	0	0	-6.64188126710125	49.3194204764697	
2020000000	0	0	0	0	0	0	-6.37079998662541	45.3304648325962	
2030000000	0	0	0	0	0	0	-5.92754223261487	40.215911915249	
2040000000	0	0	0	0	0	0	-5.02156306485289	36.977973056081	
2050000000	0	0	0	0	0	0	-4.27718009703726	33.7316336408732	
2060000000	0	0	0	0	0	0	-3.77929475716926	33.0322523058062	
2070000000	0	0	0	0	0	0	-3.20462650357742	32.3901844318241	
2080000000	0	0	0	0	0	0	-3.07517671536047	32.7421719998795	
2090000000	0	0	0	0	0	0	-2.99049937549745	33.8220561350189	
2100000000	0	0	0	0	0	0	-3.00427277709357	33.8490121485551	
2110000000	0	0	0	0	0	0	-3.24936895249166	32.6448751016499	
2120000000	0	0	0	0	0	0	-3.27108652904128	30.3721484105608	
2130000000	0	0	0	0	0	0	-2.92039006464286	26.1776697632815	
2140000000	0	0	0	0	0	0	-2.69323472636697	21.649161693869	
2150000000	0	0	0	0	0	0	-2.32020923636566	18.3919105592696	
2160000000	0	0	0	0	0	0	-2.03630991338154	15.6074776119138	
2170000000	0	0	0	0	0	0	-1.90117735081684	12.8880652738573	
2180000000	0	0	0	0	0	0	-1.9209851835267	11.0880795450479	
2190000000	0	0	0	0	0	0	-2.06767670470218	8.85095896065869	
2200000000	0	0	0	0	0	0	-2.36726921061583	6.02035931189947	
2210000000	0	0	0	0	0	0	-2.83789336585835	2.99181271702876	
2220000000	0	0	0	0	0	0	-3.26239315840502	-0.372684848067835	
2230000000	0	0	0	0	0	0	-3.75492571816044	-3.05443096498116	
2240000000	0	0	0	0	0	0	-4.04790204696697	-4.0802860835025	
2250000000	0	0	0	0	0	0	-4.38588111239938	-3.73741443208728	
2260000000	0	0	0	0	0	0	-4.64345187881739	-0.585609854905443	
2270000000	0	0	0	0	0	0	-4.61093003953058	3.60836853286773	
2280000000	0	0	0	0	0	0	-4.51676675044191	8.1810090711474	
2290000000	0	0	0	0	0	0	-4.10688819659683	12.3675323045714	
2300000000	0	0	0	0	0	0	-3.60715991249235	14.7104128229364	
2310000000	0	0	0	0	0	0	-3.20756552873057	15.2958618253966	
2320000000	0	0	0	0	0	0	-2.81020436711206	14.224344842411	
2330000000	0	0	0	0	0	0	-2.50392122754645	12.3496689337313	
2340000000	0	0	0	0	0	0	-2.06309450597859	9.44440405032377	
2350000000	0	0	0	0	0	0	-1.64144109207195	6.33268934340967	
2360000000	0	0	0	0	0	0	-1.24050224383783	3.24169943309964	
2370000000	0	0	0	0	0	0	-0.983556288441536	0.923372178047692	
2380000000	0	0	0	0	0	0	-0.785057682017005	-1.1376078767631	
2390000000	0	0	0	0	0	0	-0.675090337257573	-3.10256610279541	
2400000000	0	0	0	0	0	0	-0.631373062384108	-5.02679611126334	
2410000000	0	0	0	0	0	0	-0.608345345960323	-7.09868297634914	
2420000000	0	0	0	0	0	0	-0.605477976815293	-9.67910905130997	
2430000000	0	0	0	0	0	0	-0.602794494363113	-12.6010666995966	
2440000000	0	0	0	0	0	0	-0.557949187992097	-15.3072249419324	
2450000000	0	0	0	0	0	0	-0.466893786874872	-17.3209024671314	
2460000000	0	0	0	0	0	0	-0.359732799090935	-18.1509351551733	
2470000000	0	0	0	0	0	0	-0.282998881068633	-18.4239606865463	
2480000000	0	0	0	0	0	0	-0.264544558657991	-18.5765143672343	
2490000000	0	0	0	0	0	0	-0.278410855353702	-19.1376855945517	
2500000000	0	0	0	0	0	0	-0.33389620219388	-20.4330466874925	
