!Keysight Technologies N9923A: A.08.18
!Date: Thursday, 21 December 2017 14:42:21
!Timezone: (GMT-05:00) Eastern Time (US & Canada)
!Model: N9923A
!Serial: MY52412517
!GPS Latitude: 
!GPS Longitude: 
!GPS TimeStamp: 0001-01-01 00:00:00Z
!GPS Seconds Since Last Read: 0
!CHECKSUM:2135517836
!Correction: S11()S21(ON Q)S12()S22()
!S2P File: Measurements:S11,S21,S12,S22:
# Hz S DB R 50
800000000	0	0	-76.1776777192387	147.975880489139	0	0	0	0	
801600000	0	0	-77.3658834042917	74.0001505767258	0	0	0	0	
803200000	0	0	-85.7241018030438	-2.62392907254712	0	0	0	0	
804800000	0	0	-78.6788679066168	-174.823939438495	0	0	0	0	
806400000	0	0	-88.0481360242426	-157.748364702776	0	0	0	0	
808000000	0	0	-81.4175072086447	-155.763176119357	0	0	0	0	
809600000	0	0	-82.1703372472833	3.13026592224979	0	0	0	0	
811200000	0	0	-91.1982935786055	66.2677178885868	0	0	0	0	
812800000	0	0	-79.9703992918873	145.782113808295	0	0	0	0	
814400000	0	0	-85.8479399812201	154.301143504165	0	0	0	0	
816000000	0	0	-81.5178212164259	-36.4180436557469	0	0	0	0	
817600000	0	0	-82.5895040763304	-3.53499092893915	0	0	0	0	
819200000	0	0	-89.2621929834654	158.642933746246	0	0	0	0	
820800000	0	0	-79.04161871443	-94.6809568602483	0	0	0	0	
822400000	0	0	-83.5416993738031	177.597469684147	0	0	0	0	
824000000	0	0	-97.2091268338665	-28.0724744287886	0	0	0	0	
825600000	0	0	-90.3750058113849	-116.433287760474	0	0	0	0	
827200000	0	0	-92.0708615160861	108.727135493168	0	0	0	0	
828800000	0	0	-85.700012182696	-168.639456669732	0	0	0	0	
830400000	0	0	-75.9217788437529	-160.078285016465	0	0	0	0	
832000000	0	0	-89.6008616485674	73.772652733407	0	0	0	0	
833600000	0	0	-79.7631980324119	-145.003546984841	0	0	0	0	
835200000	0	0	-81.8286627428441	170.169934447129	0	0	0	0	
836800000	0	0	-88.3592100197851	-147.216107375069	0	0	0	0	
838400000	0	0	-77.206825363512	-108.545502827521	0	0	0	0	
840000000	0	0	-76.9660122862031	133.983994172063	0	0	0	0	
841600000	0	0	-81.9193675680874	-57.1534450520556	0	0	0	0	
843200000	0	0	-85.3766060912812	0.309142036085495	0	0	0	0	
844800000	0	0	-89.1947837029521	50.9314829510227	0	0	0	0	
846400000	0	0	-84.1232905268819	134.021227423952	0	0	0	0	
848000000	0	0	-87.56470000712	149.882020635433	0	0	0	0	
849600000	0	0	-88.0750209101521	20.8847126866722	0	0	0	0	
851200000	0	0	-92.6136570061275	-156.498095857893	0	0	0	0	
852800000	0	0	-79.2020484744964	-30.1993977726974	0	0	0	0	
854400000	0	0	-78.1712906835789	-71.3763131596436	0	0	0	0	
856000000	0	0	-77.4533177355028	-111.403660885677	0	0	0	0	
857600000	0	0	-89.5428202765103	-152.481531168742	0	0	0	0	
859200000	0	0	-77.0465941736402	160.253951203445	0	0	0	0	
860800000	0	0	-83.3362113950048	87.3276278910289	0	0	0	0	
862400000	0	0	-82.4837959036424	65.3684137515197	0	0	0	0	
864000000	0	0	-83.379495529512	-101.320163644219	0	0	0	0	
865600000	0	0	-88.5087036506486	-129.418901408587	0	0	0	0	
867200000	0	0	-82.3186859359455	67.4574631948702	0	0	0	0	
868800000	0	0	-86.9607368717712	-116.89957408877	0	0	0	0	
870400000	0	0	-78.549686891413	75.8967672848862	0	0	0	0	
872000000	0	0	-77.0580229781336	81.954506553334	0	0	0	0	
873600000	0	0	-81.6633126798071	-175.005754969928	0	0	0	0	
875200000	0	0	-81.5404452179785	172.768356576231	0	0	0	0	
876800000	0	0	-94.0410896667803	31.0940259371485	0	0	0	0	
878400000	0	0	-75.1752314058138	114.799536517004	0	0	0	0	
880000000	0	0	-86.428030871166	68.5178236079838	0	0	0	0	
881600000	0	0	-79.5602676566497	97.5587028577306	0	0	0	0	
883200000	0	0	-84.2332537712763	98.7443650242513	0	0	0	0	
884800000	0	0	-87.5157519406829	70.1151928381646	0	0	0	0	
886400000	0	0	-80.1216083637793	120.656423830721	0	0	0	0	
888000000	0	0	-87.7836905192053	-66.9158763014079	0	0	0	0	
889600000	0	0	-86.2052150885982	48.9419481399606	0	0	0	0	
891200000	0	0	-82.1981921364181	-145.836405394284	0	0	0	0	
892800000	0	0	-79.3761640485927	116.395514978987	0	0	0	0	
894400000	0	0	-88.6966198514134	163.140276577898	0	0	0	0	
896000000	0	0	-79.6116694210712	175.687212134285	0	0	0	0	
897600000	0	0	-83.0042244650013	-155.539912498639	0	0	0	0	
899200000	0	0	-80.5979047988791	-119.586375914169	0	0	0	0	
900800000	0	0	-74.8945075844508	142.017108954437	0	0	0	0	
902400000	0	0	-79.8548769683259	-104.032372760004	0	0	0	0	
904000000	0	0	-74.841645454168	-121.80628072007	0	0	0	0	
905600000	0	0	-76.646851867648	-173.36809236883	0	0	0	0	
907200000	0	0	-78.7944274860256	-171.614575596834	0	0	0	0	
908800000	0	0	-81.1747442136935	103.330907628608	0	0	0	0	
910400000	0	0	-92.6298617344343	-132.269277992132	0	0	0	0	
912000000	0	0	-81.5662068185236	169.635179426816	0	0	0	0	
913600000	0	0	-75.4730029063976	79.7760506525586	0	0	0	0	
915200000	0	0	-77.7107240219118	150.312056019774	0	0	0	0	
916800000	0	0	-76.3857423129048	-103.82764176414	0	0	0	0	
918400000	0	0	-83.3601533036018	-81.6967473611515	0	0	0	0	
920000000	0	0	-75.1975606819397	-160.172815583405	0	0	0	0	
921600000	0	0	-82.041256796252	24.1763540900255	0	0	0	0	
923200000	0	0	-82.7510258435883	-75.0842276727437	0	0	0	0	
924800000	0	0	-80.1572701757219	76.1995268162414	0	0	0	0	
926400000	0	0	-74.7852875151049	164.614146543767	0	0	0	0	
928000000	0	0	-82.608819541548	66.3405920085027	0	0	0	0	
929600000	0	0	-91.7017132968958	30.8187444417358	0	0	0	0	
931200000	0	0	-89.2809943103952	-57.7772559213546	0	0	0	0	
932800000	0	0	-92.2191391113346	178.75764512556	0	0	0	0	
934400000	0	0	-85.7652960272314	-102.535389358863	0	0	0	0	
936000000	0	0	-79.7366292111511	-142.351992800618	0	0	0	0	
937600000	0	0	-80.3147775273052	65.587421411847	0	0	0	0	
939200000	0	0	-77.1937272496804	-134.144653542943	0	0	0	0	
940800000	0	0	-81.5321997038056	-103.094864779602	0	0	0	0	
942400000	0	0	-89.1152941769078	-131.298380508958	0	0	0	0	
944000000	0	0	-77.0922125505311	-146.057327368264	0	0	0	0	
945600000	0	0	-88.6126741453672	61.2293343903881	0	0	0	0	
947200000	0	0	-78.0768246285264	-35.0347370688637	0	0	0	0	
948800000	0	0	-86.040861394377	-179.17247912955	0	0	0	0	
950400000	0	0	-88.2489464944344	-45.0567313549092	0	0	0	0	
952000000	0	0	-85.7511106632443	105.099846614472	0	0	0	0	
953600000	0	0	-78.3655140415131	-5.29838001998744	0	0	0	0	
955200000	0	0	-82.0165424939161	114.998326506773	0	0	0	0	
956800000	0	0	-81.4521760787631	6.17720835911819	0	0	0	0	
958400000	0	0	-78.9626440164052	78.2806879574475	0	0	0	0	
960000000	0	0	-81.0302641226934	179.617047254548	0	0	0	0	
961600000	0	0	-75.4553636918186	137.875635217741	0	0	0	0	
963200000	0	0	-77.906173170335	6.63398336746069	0	0	0	0	
964800000	0	0	-84.5222121861448	39.4190365571946	0	0	0	0	
966400000	0	0	-80.3369860292482	140.638538199391	0	0	0	0	
968000000	0	0	-73.9404849392147	105.337878667258	0	0	0	0	
969600000	0	0	-79.3544406042119	64.3007961827717	0	0	0	0	
971200000	0	0	-85.4023702987357	176.882098366417	0	0	0	0	
972800000	0	0	-89.1585954575574	-143.197743478754	0	0	0	0	
974400000	0	0	-74.6007291368362	99.979623761594	0	0	0	0	
976000000	0	0	-77.0109623111305	-101.563221912869	0	0	0	0	
977600000	0	0	-78.1928625706388	-18.5202007205296	0	0	0	0	
979200000	0	0	-79.4805639571078	-64.3398586852229	0	0	0	0	
980800000	0	0	-83.106371522185	-107.174498760419	0	0	0	0	
982400000	0	0	-77.4233333609445	107.437294133317	0	0	0	0	
984000000	0	0	-84.5442309775414	-45.965339049933	0	0	0	0	
985600000	0	0	-80.8049633902875	149.299706740623	0	0	0	0	
987200000	0	0	-87.1679399158401	-128.008193846912	0	0	0	0	
988800000	0	0	-81.362718160622	112.485630076896	0	0	0	0	
990400000	0	0	-77.7497538585573	-176.441024805186	0	0	0	0	
992000000	0	0	-84.7884881465749	-67.8273482105564	0	0	0	0	
993600000	0	0	-77.7533166094418	108.817683948751	0	0	0	0	
995200000	0	0	-81.0257726582068	54.9637506857659	0	0	0	0	
996800000	0	0	-77.845647754733	48.1396062321235	0	0	0	0	
998400000	0	0	-86.9015929333874	-91.9800266625398	0	0	0	0	
1000000000	0	0	-77.8683297244552	43.1955827608502	0	0	0	0	
1001600000	0	0	-77.7500240026415	-21.4657111615014	0	0	0	0	
1003200000	0	0	-76.0028425826863	-138.014796543597	0	0	0	0	
1004800000	0	0	-80.4634674339134	-164.29005239462	0	0	0	0	
1006400000	0	0	-84.0973545462119	-135.461229239286	0	0	0	0	
1008000000	0	0	-80.7901630292921	64.8307742781933	0	0	0	0	
1009600000	0	0	-87.5098875338177	-111.599456157094	0	0	0	0	
1011200000	0	0	-78.1356829109281	-40.1107658654442	0	0	0	0	
1012800000	0	0	-77.8711749298015	-38.0013763073821	0	0	0	0	
1014400000	0	0	-81.3456096052012	-122.616124300797	0	0	0	0	
1016000000	0	0	-75.437452476249	-130.423711576534	0	0	0	0	
1017600000	0	0	-90.2802948267393	-168.941992754061	0	0	0	0	
1019200000	0	0	-90.3573569128778	67.900094211418	0	0	0	0	
1020800000	0	0	-76.7509691754239	138.822379871038	0	0	0	0	
1022400000	0	0	-78.3515743028156	147.117913542502	0	0	0	0	
1024000000	0	0	-83.3335031527808	-156.939576370904	0	0	0	0	
1025600000	0	0	-80.9823529982177	54.7778834610767	0	0	0	0	
1027200000	0	0	-75.2420075151168	-179.42047528284	0	0	0	0	
1028800000	0	0	-82.002796010196	-34.1475194381744	0	0	0	0	
1030400000	0	0	-80.6458323889959	-10.188442703427	0	0	0	0	
1032000000	0	0	-81.4044360141696	57.0046290972871	0	0	0	0	
1033600000	0	0	-76.971385080486	-15.1486016481804	0	0	0	0	
1035200000	0	0	-75.8652405592677	-131.727903205028	0	0	0	0	
1036800000	0	0	-77.2723380049121	34.2251944000994	0	0	0	0	
1038400000	0	0	-79.9063995316781	72.8293157078817	0	0	0	0	
1040000000	0	0	-76.1157509943808	19.9109763528779	0	0	0	0	
1041600000	0	0	-82.5192971756841	4.22132204918591	0	0	0	0	
1043200000	0	0	-77.1098571736927	-26.5102044440719	0	0	0	0	
1044800000	0	0	-81.1220569282857	97.8713058473155	0	0	0	0	
1046400000	0	0	-79.8668655861923	-114.428749672652	0	0	0	0	
1048000000	0	0	-80.5440821160739	8.71039608747911	0	0	0	0	
1049600000	0	0	-79.2805554009822	33.6216882443744	0	0	0	0	
1051200000	0	0	-75.8005291914263	17.1656302453404	0	0	0	0	
1052800000	0	0	-79.3066005194172	60.0068915372723	0	0	0	0	
1054400000	0	0	-87.136658829418	-162.111378249741	0	0	0	0	
1056000000	0	0	-77.2861235718151	58.6869674806766	0	0	0	0	
1057600000	0	0	-88.5943198764004	-21.5030582380888	0	0	0	0	
1059200000	0	0	-78.8177645513998	120.926072902971	0	0	0	0	
1060800000	0	0	-74.9265971339784	72.2447450679741	0	0	0	0	
1062400000	0	0	-77.8231434309109	-96.6625634323556	0	0	0	0	
1064000000	0	0	-74.6385375144985	73.1428393968818	0	0	0	0	
1065600000	0	0	-85.533169488516	59.7042410024448	0	0	0	0	
1067200000	0	0	-79.8214900149616	-136.910207487909	0	0	0	0	
1068800000	0	0	-91.6545622122113	137.311512268074	0	0	0	0	
1070400000	0	0	-74.0626488349349	140.76219295092	0	0	0	0	
1072000000	0	0	-75.7374502971201	-177.464514481028	0	0	0	0	
1073600000	0	0	-80.3775060606356	-179.078999006046	0	0	0	0	
1075200000	0	0	-101.714487498954	-146.016504138416	0	0	0	0	
1076800000	0	0	-76.4017659900253	83.5573748143483	0	0	0	0	
1078400000	0	0	-83.4975524473246	19.9563927060522	0	0	0	0	
1080000000	0	0	-78.6570841098301	-137.16812720741	0	0	0	0	
1081600000	0	0	-80.6503804750748	178.361173842114	0	0	0	0	
1083200000	0	0	-91.2005688421674	168.005454736587	0	0	0	0	
1084800000	0	0	-75.7702023779037	54.015943642453	0	0	0	0	
1086400000	0	0	-81.3854289784152	-171.23487900558	0	0	0	0	
1088000000	0	0	-89.1773649617984	-5.06698948974123	0	0	0	0	
1089600000	0	0	-79.6463296772143	-133.84090518666	0	0	0	0	
1091200000	0	0	-77.8190584699362	-53.8308161324238	0	0	0	0	
1092800000	0	0	-84.5990296201094	76.4374470065375	0	0	0	0	
1094400000	0	0	-86.9278803182728	-127.426702150889	0	0	0	0	
1096000000	0	0	-100.13243596588	-59.4850920512878	0	0	0	0	
1097600000	0	0	-84.5523476006547	-138.176324117008	0	0	0	0	
1099200000	0	0	-85.7412550434444	92.9251107639318	0	0	0	0	
1100800000	0	0	-82.3809102496534	48.749263047518	0	0	0	0	
1102400000	0	0	-79.0662393131823	140.115963811705	0	0	0	0	
1104000000	0	0	-75.7685373592136	-7.50389664111763	0	0	0	0	
1105600000	0	0	-81.6301680816072	24.4600986127191	0	0	0	0	
1107200000	0	0	-82.0959644605383	-21.5859086253625	0	0	0	0	
1108800000	0	0	-83.1745480810963	0.231069762066472	0	0	0	0	
1110400000	0	0	-80.8920784056031	166.668302886955	0	0	0	0	
1112000000	0	0	-85.1689745669073	-113.354565982728	0	0	0	0	
1113600000	0	0	-83.4229227594317	85.5388734577815	0	0	0	0	
1115200000	0	0	-82.7951575662835	126.687464940931	0	0	0	0	
1116800000	0	0	-84.4948932971275	-127.028667380367	0	0	0	0	
1118400000	0	0	-85.0960466565657	147.339676591211	0	0	0	0	
1120000000	0	0	-74.0342414065122	-156.547161541927	0	0	0	0	
1121600000	0	0	-74.8662631952877	-69.2116531342142	0	0	0	0	
1123200000	0	0	-85.6319098968701	-115.529047716428	0	0	0	0	
1124800000	0	0	-75.1731152651815	-62.9940857999263	0	0	0	0	
1126400000	0	0	-79.9797647522233	-179.294033759195	0	0	0	0	
1128000000	0	0	-80.9765982598839	108.139052165392	0	0	0	0	
1129600000	0	0	-80.4068600917987	6.12805753078885	0	0	0	0	
1131200000	0	0	-80.5368487042136	130.566005706829	0	0	0	0	
1132800000	0	0	-102.213052710067	-24.2169503460973	0	0	0	0	
1134400000	0	0	-83.180315728481	-100.308553105322	0	0	0	0	
1136000000	0	0	-91.9191857741111	-139.230747734188	0	0	0	0	
1137600000	0	0	-79.2510744101943	32.6274923078363	0	0	0	0	
1139200000	0	0	-85.293033538964	-171.615846120225	0	0	0	0	
1140800000	0	0	-78.8421220359296	106.612229346271	0	0	0	0	
1142400000	0	0	-77.4700783578991	11.9425058391756	0	0	0	0	
1144000000	0	0	-74.5175096669723	119.685694166541	0	0	0	0	
1145600000	0	0	-90.9917724050344	-70.8721913492386	0	0	0	0	
1147200000	0	0	-78.095605910855	100.4495243823	0	0	0	0	
1148800000	0	0	-81.7722979669816	126.863125257568	0	0	0	0	
1150400000	0	0	-78.3454980622476	104.370114070494	0	0	0	0	
1152000000	0	0	-75.8090124350678	149.246328111941	0	0	0	0	
1153600000	0	0	-104.665937930322	9.68598886036987	0	0	0	0	
1155200000	0	0	-78.9632702536984	109.744844599718	0	0	0	0	
1156800000	0	0	-90.0558216342984	-8.79382475146247	0	0	0	0	
1158400000	0	0	-74.8826107286028	90.2080164281043	0	0	0	0	
1160000000	0	0	-88.2388401397711	154.678096284491	0	0	0	0	
1161600000	0	0	-82.290856595348	112.110476650784	0	0	0	0	
1163200000	0	0	-88.7285167680194	108.439615063979	0	0	0	0	
1164800000	0	0	-81.4764875266802	-141.829042518262	0	0	0	0	
1166400000	0	0	-81.3985091564109	-11.3045728882594	0	0	0	0	
1168000000	0	0	-87.7536267680123	-148.762680903583	0	0	0	0	
1169600000	0	0	-91.1027659841015	-142.246943535794	0	0	0	0	
1171200000	0	0	-73.0820714305144	-5.85714430886913	0	0	0	0	
1172800000	0	0	-83.590925434439	83.7113606891191	0	0	0	0	
1174400000	0	0	-78.9687800162743	-144.937230623717	0	0	0	0	
1176000000	0	0	-90.901852763489	-22.7311030492646	0	0	0	0	
1177600000	0	0	-76.7690721419	96.3637570450867	0	0	0	0	
1179200000	0	0	-81.1661666194422	16.1949269168398	0	0	0	0	
1180800000	0	0	-82.4103350284679	-89.5578681387985	0	0	0	0	
1182400000	0	0	-79.3738469765085	179.027432770828	0	0	0	0	
1184000000	0	0	-85.7731367313925	-154.790576034454	0	0	0	0	
1185600000	0	0	-78.1884951833784	-108.880311601756	0	0	0	0	
1187200000	0	0	-76.1921140598494	-162.518416786278	0	0	0	0	
1188800000	0	0	-71.5236193398735	-86.7189535335062	0	0	0	0	
1190400000	0	0	-78.6286482311078	-99.4043696953951	0	0	0	0	
1192000000	0	0	-77.6250124983666	-122.982142499823	0	0	0	0	
1193600000	0	0	-84.9686736577078	8.74363434906316	0	0	0	0	
1195200000	0	0	-76.5251361215508	89.5239685034118	0	0	0	0	
1196800000	0	0	-74.9022462647048	-53.0489534823597	0	0	0	0	
1198400000	0	0	-80.1071428127258	-133.02620865338	0	0	0	0	
1200000000	0	0	-96.714188178255	89.2370186920493	0	0	0	0	
1201600000	0	0	-80.0298950294876	169.85954127505	0	0	0	0	
1203200000	0	0	-79.9570023683855	172.999322090012	0	0	0	0	
1204800000	0	0	-73.4880805265133	-49.7288459876876	0	0	0	0	
1206400000	0	0	-80.2308800776958	-35.80895885948	0	0	0	0	
1208000000	0	0	-89.2500969337734	115.507830304756	0	0	0	0	
1209600000	0	0	-75.677603821378	93.3126771598647	0	0	0	0	
1211200000	0	0	-74.3662027437712	128.744354220064	0	0	0	0	
1212800000	0	0	-74.2024930501007	17.5657834663484	0	0	0	0	
1214400000	0	0	-86.3821101085509	-166.793495656542	0	0	0	0	
1216000000	0	0	-80.4613787776146	70.0141982368469	0	0	0	0	
1217600000	0	0	-76.0993391074372	44.4648756666245	0	0	0	0	
1219200000	0	0	-82.6279456653587	87.1475123619029	0	0	0	0	
1220800000	0	0	-74.1290257783893	3.83867227481612	0	0	0	0	
1222400000	0	0	-74.5985212242858	79.445660957737	0	0	0	0	
1224000000	0	0	-87.7509721840806	-28.4743133618941	0	0	0	0	
1225600000	0	0	-75.6514306156337	109.208768690317	0	0	0	0	
1227200000	0	0	-78.3924209230286	12.1695060564054	0	0	0	0	
1228800000	0	0	-86.0189236847442	122.383201817807	0	0	0	0	
1230400000	0	0	-73.3292094459833	89.5851592029902	0	0	0	0	
1232000000	0	0	-76.0163655356451	80.1919194188557	0	0	0	0	
1233600000	0	0	-91.9085871486979	-47.2352924146059	0	0	0	0	
1235200000	0	0	-79.7495975775718	75.6971447763008	0	0	0	0	
1236800000	0	0	-76.203325924546	147.435303465824	0	0	0	0	
1238400000	0	0	-78.7889949139798	59.3473871494111	0	0	0	0	
1240000000	0	0	-83.5812482587237	86.5688066495713	0	0	0	0	
1241600000	0	0	-86.7855381534034	10.0676142923712	0	0	0	0	
1243200000	0	0	-75.3166260119935	120.111370058348	0	0	0	0	
1244800000	0	0	-85.3431594074922	6.73874493336613	0	0	0	0	
1246400000	0	0	-84.8861460055044	40.6316638452136	0	0	0	0	
1248000000	0	0	-75.2395949754126	155.775978266137	0	0	0	0	
1249600000	0	0	-81.2288022223221	134.617147051739	0	0	0	0	
1251200000	0	0	-75.5495501411735	106.627599626717	0	0	0	0	
1252800000	0	0	-88.2442530363872	-150.297323027726	0	0	0	0	
1254400000	0	0	-75.99747712075	140.679887511333	0	0	0	0	
1256000000	0	0	-76.9811415357774	-108.509068893783	0	0	0	0	
1257600000	0	0	-81.1626549172978	-179.311821331578	0	0	0	0	
1259200000	0	0	-84.3667362406669	-177.891937411115	0	0	0	0	
1260800000	0	0	-83.3791514675539	14.1514651746476	0	0	0	0	
1262400000	0	0	-88.424075465952	114.979919814358	0	0	0	0	
1264000000	0	0	-74.3653148770376	-117.20915276275	0	0	0	0	
1265600000	0	0	-84.5505468144193	-125.983960260964	0	0	0	0	
1267200000	0	0	-83.6690452361913	-105.12709287145	0	0	0	0	
1268800000	0	0	-83.8331562274967	-2.18174310516284	0	0	0	0	
1270400000	0	0	-77.43831382559	41.6076067525705	0	0	0	0	
1272000000	0	0	-76.7853779941211	141.178668600519	0	0	0	0	
1273600000	0	0	-81.909518824658	-66.4159686715376	0	0	0	0	
1275200000	0	0	-78.7912561348947	48.1149756075498	0	0	0	0	
1276800000	0	0	-82.8453024351694	-160.770847955254	0	0	0	0	
1278400000	0	0	-86.88020840291	164.794816916083	0	0	0	0	
1280000000	0	0	-99.3312332206626	175.24203612826	0	0	0	0	
1281600000	0	0	-80.2048711313806	33.8862493294792	0	0	0	0	
1283200000	0	0	-78.3143841541236	-176.998129373849	0	0	0	0	
1284800000	0	0	-81.1000397261329	144.328820535323	0	0	0	0	
1286400000	0	0	-73.4375155205401	-90.4554780872348	0	0	0	0	
1288000000	0	0	-77.9643007343492	-62.8767531433099	0	0	0	0	
1289600000	0	0	-77.9899477686672	-151.437343189797	0	0	0	0	
1291200000	0	0	-79.0992942789972	-138.419272918405	0	0	0	0	
1292800000	0	0	-81.4931202272501	-68.3925120852702	0	0	0	0	
1294400000	0	0	-79.9613954461277	147.219360872538	0	0	0	0	
1296000000	0	0	-76.8474817636041	-170.87541391209	0	0	0	0	
1297600000	0	0	-93.7999077114786	-111.398073560714	0	0	0	0	
1299200000	0	0	-78.257641187977	-90.6073709361018	0	0	0	0	
1300800000	0	0	-74.700542194924	147.232750868242	0	0	0	0	
1302400000	0	0	-77.4579012821694	157.267304109093	0	0	0	0	
1304000000	0	0	-82.7138604513823	-84.6009274024026	0	0	0	0	
1305600000	0	0	-74.6356243196434	-111.135462807637	0	0	0	0	
1307200000	0	0	-88.2845327021281	30.4867156437503	0	0	0	0	
1308800000	0	0	-79.2182073593795	-172.399757454168	0	0	0	0	
1310400000	0	0	-83.3803593527774	-48.6103028797617	0	0	0	0	
1312000000	0	0	-80.4061420824567	144.839248014953	0	0	0	0	
1313600000	0	0	-72.9518884489983	-107.630110531711	0	0	0	0	
1315200000	0	0	-79.6987633516676	-126.289702881647	0	0	0	0	
1316800000	0	0	-76.2038517586751	-136.254609094165	0	0	0	0	
1318400000	0	0	-76.0688415036037	-156.830358208088	0	0	0	0	
1320000000	0	0	-79.1983336676783	123.128336734352	0	0	0	0	
1321600000	0	0	-78.4332224522469	-138.532102812512	0	0	0	0	
