!Keysight Technologies N9923A: A.08.18
!Date: Friday, 22 December 2017 12:08:49
!Timezone: (GMT-05:00) Eastern Time (US & Canada)
!Model: N9923A
!Serial: MY52412517
!GPS Latitude: 
!GPS Longitude: 
!GPS TimeStamp: 0001-01-01 00:00:00Z
!GPS Seconds Since Last Read: 0
!CHECKSUM:0129599692
!Correction: S11(ON Q?)S21(ON Q?)S12(ON Q?)S22(ON Q?)
!S2P File: Measurements:S11,S21,S12,S22:
# Hz S DB R 50
500000000	-13.2516505868862	-166.81902532169	-39.723103710434	51.2230125333533	34.3944519030969	-6.95549389245003	-0.271998665062567	-20.9504242375219	
510000000	-12.4680367000565	-162.82422399824	-38.5011231621387	-150.133150074355	34.2977761672618	-11.7859258959028	-0.440557939369931	-25.0707595806057	
520000000	-14.8124846446519	-150.086764029067	-44.9817037850643	63.0458380653971	34.3191878178195	-16.8577361264824	-0.223139426341626	-26.8115550529156	
530000000	-13.6230067146787	-138.890850297502	-35.975339372611	48.000103755951	34.3565956391841	-20.1148783601466	0.0163175470893489	-29.6692060772446	
540000000	-16.1664933618376	-134.19390110198	-37.4084533595658	141.818689460897	34.5072026355177	-24.2465819542687	0.0739076013509658	-29.3436224996412	
550000000	-14.486329294657	-163.598646050559	-38.3233447088076	14.8198661772806	34.6990933918007	-28.1688456005776	-0.621294899683055	-29.540097090834	
560000000	-18.177338638941	-150.947862350095	-40.9067724324655	-94.3320599035889	34.9533381204123	-32.2660569775437	-0.112528288455717	-30.6997803995716	
570000000	-13.220328640646	-143.649109328951	-31.6254679929509	-144.651347128823	35.2723590080814	-38.064016123139	0.176519933748105	-38.0695539131622	
580000000	-14.6108417900632	-159.086134251467	-43.7102268058473	-72.8624355932055	35.504165790983	-43.6643997354099	-0.189539064192168	-39.6211958990084	
590000000	-14.6559690709717	175.44942507535	-36.0592945971236	106.26314713365	35.6106763495214	-49.5097459345038	-0.608027169183075	-39.8941100259833	
600000000	-12.0473819762704	-152.815425694027	-34.3789823203857	-1.49026793965183	35.7239098978509	-56.2191408668938	-0.0713038134149768	-47.8874497420125	
610000000	-12.3600960217043	-168.365301012955	-45.980938035045	-2.53355214621289	35.8031339991597	-62.1180352400076	-0.305422682930896	-47.9556672514845	
620000000	-12.5292826135196	-174.594899653269	-37.3757210934898	28.7858106309015	35.7655011155069	-68.5399074738702	-0.315103250339501	-51.8543169880659	
630000000	-17.5609948690848	171.10144181006	-40.98566823743	-155.655218542581	35.5398605266453	-75.2824121740588	-0.102909668930827	-48.7353084290158	
640000000	-14.4063434580904	146.752165530862	-35.2880540247653	49.9077532610934	35.2944110886791	-81.5619601631003	-0.57807968617427	-50.7809117773791	
650000000	-16.1591569203875	137.721489596965	-34.9939703505966	107.697266918288	34.9362671893688	-86.9817645738116	-0.692921351447101	-51.0761747409669	
660000000	-20.8264440660345	84.6606546845837	-40.3443584243212	76.9043812096247	34.3758130519212	-90.9600601840668	-0.580734322167158	-50.8178322667916	
670000000	-35.0679639666593	123.85736020523	-40.4520582885623	-85.3542212869506	34.0183489422188	-94.7403275792625	-0.346362967562823	-54.7817487793109	
680000000	-34.2678277717061	81.1467307404078	-40.9018438456656	-91.0280136315979	33.6333020947025	-97.7004564588378	-0.706519540561132	-57.7250862496977	
690000000	-22.9509433223866	56.443691643727	-33.3670734338559	-178.342402559583	33.3478501626652	-100.043736759416	-0.65595891803505	-58.0035580751628	
700000000	-33.3964329455646	35.4972935264294	-40.6061231540108	-174.466293546646	33.0424071973395	-102.031872206137	-0.544802917753848	-62.2578312514206	
710000000	-28.4037443110944	-101.779070932245	-44.6126514713006	-25.5906843841556	32.7855272685157	-104.23207811385	-0.576494052447878	-65.6471175277688	
720000000	-18.6198966397116	-112.473735440062	-36.4670889448944	83.767855612107	32.585629709642	-105.429534769966	-0.343118885816429	-70.3597926264949	
730000000	-16.2901055429196	-91.5187289051676	-38.427525557132	-124.532045718175	32.4926712265125	-106.393151763537	-0.288170240959676	-67.8515057192722	
740000000	-16.6120984661851	-89.786384373129	-51.9591331841315	-12.0052331262889	32.5216050749158	-107.927103133194	-0.235584661784533	-68.8312858535738	
750000000	-16.6998248918508	-74.8221392274368	-37.8116176647595	-35.8712277795418	32.6614381337298	-109.173652036998	0.0618157119070632	-67.6786726903508	
760000000	-17.3325160183594	-87.757625665435	-46.1477559617715	170.200652649519	32.8215630661167	-111.518931614704	-0.172158651949866	-69.9902716578315	
770000000	-19.0036300113956	-83.0511508544314	-42.0592753233927	171.592476518888	32.9815234092868	-113.692707144714	-0.485500331276805	-72.1994944405647	
780000000	-17.0259980618024	-88.5779323898101	-36.6756348734443	46.0753796323006	33.0243480694311	-116.588350750092	-0.309167294572849	-74.6895681627825	
790000000	-18.7718688617105	-123.872335062147	-37.2659030906388	-53.6177489891955	33.0978297258903	-119.667301474354	-0.880066637684452	-78.50597674687	
800000000	-17.2490420684404	-98.1017033444669	-37.8401673497289	169.581303062721	33.1771272040332	-122.511523086959	-0.289046005061952	-79.6811788107121	
810000000	-15.1248144122301	-125.76226723934	-37.792382980141	116.830691353215	33.1558426927426	-125.222646075801	-0.569825414536981	-85.998889736835	
820000000	-14.8440459919413	-123.531225311057	-48.3380643143895	-97.7262529626241	33.1790431049273	-127.608436032272	-0.517241743993914	-85.8934633295542	
830000000	-13.8107613972621	-129.960187412048	-40.882660656569	-166.000194809255	33.227472401886	-129.502649761853	-0.268402728648722	-88.8256932678918	
840000000	-13.5669592936988	-124.838119860537	-40.8650221030026	-146.205302895782	33.3279282359555	-131.625610257556	-0.175634268744299	-90.5648246856888	
850000000	-13.8110178417571	-109.828590420276	-39.0617185271802	26.3267940136961	33.4542129444772	-133.926997585596	-0.102661657505069	-87.1906586139196	
860000000	-14.7829529553878	-114.7601890232	-53.0141581380455	-163.589606312956	33.640226207378	-136.324935064131	-0.374992793162963	-89.7732549436604	
870000000	-15.452722989761	-107.863314331794	-41.2789504197103	97.1649921030191	33.8048283511105	-139.000762349111	-0.435746543106123	-90.2142003777595	
880000000	-16.1429297784537	-128.735209181993	-41.5647957435581	-12.4889771876156	34.0099452607038	-141.746235365303	-0.624891657004812	-93.980775573615	
890000000	-17.4286848334312	-143.143824559734	-42.709010249487	-11.5710665331087	34.1280904218907	-144.736298751881	-0.904754793212136	-97.1617277171879	
900000000	-15.1158772454022	-141.473430565201	-38.0799765793312	128.455084954255	34.2303235364856	-148.297870180728	-0.574242846313886	-101.156723155444	
910000000	-17.1355414337097	-140.612607139262	-35.2754463748996	-44.6162898044594	34.3288970888946	-151.347317282476	-0.821634562441711	-100.392359689505	
920000000	-14.4133430411919	-152.702264844068	-48.2495308685722	-159.68793937218	34.3913359709792	-154.242928861305	-0.610041352390296	-106.64958396838	
930000000	-14.3383861654317	-148.226347479138	-50.1713419083372	-106.686581307353	34.4323138871282	-157.053467797503	-0.487184420152719	-109.456280797921	
940000000	-13.9514705251147	-147.439786742275	-43.6858403837361	144.344860578877	34.5515305738845	-160.003752212017	-0.637615837358646	-110.167992285506	
950000000	-14.5428900217192	-146.903943732477	-39.2907108949229	170.001375410752	34.5799375787157	-162.345402196312	-0.668591161663355	-108.992496424483	
960000000	-13.6760586180252	-142.067921886174	-43.0308402655777	7.7067859733944	34.6861380890034	-165.102056569894	-0.425063447896806	-112.881343236986	
970000000	-14.7873517553309	-145.779742050727	-49.2250649337246	-19.2106498095683	34.8522801666593	-167.358254735529	-0.717274667834017	-112.098869539814	
980000000	-16.5393297107522	-137.461946766257	-39.1206031410006	-148.952110578812	35.038827609851	-170.071498106861	-0.755601127433548	-112.406984503232	
990000000	-15.2963139872321	-154.217989056667	-44.0723011939057	116.330625752477	35.2551416508495	-173.097281985222	-0.879252642505085	-118.237506414856	
1000000000	-17.1360373175142	-152.316341900985	-51.2637038867151	-51.0157681789258	35.4363733310522	-176.747431089413	-0.966523935969831	-120.382839246369	
1010000000	-15.8152585917908	-171.695028348063	-50.8607729926622	158.533754723972	35.6268278273571	179.800284099906	-1.09660137344023	-126.689879224191	
1020000000	-14.5946822409418	-169.576958979283	-41.9835161277609	-34.0386199253096	35.688698471458	176.448213949756	-0.715304208842385	-128.116670492799	
1030000000	-15.199120893926	-169.207812916525	-44.9370964143866	17.664918809478	35.7907601706525	172.737908177083	-0.653982125760572	-131.921573023893	
1040000000	-13.8167265933439	-179.729249079012	-37.1296765032459	-96.189372223425	35.7798115066614	169.540662175553	-0.88848947267835	-137.028098990555	
1050000000	-13.0249251361302	-162.607053546336	-38.7747075707986	57.1870130925411	35.8283820978339	167.160952668729	-0.650091297805375	-135.294721320136	
1060000000	-14.0374481769638	-173.165861507709	-41.5394706546826	-24.3127313137892	35.9960820220432	164.736678715203	-1.05503329109169	-138.171383175281	
1070000000	-13.6188222642375	173.475284719411	-31.3764116978719	37.9235555031176	36.1340503408623	162.777818249809	-1.15524982024197	-143.147244847486	
1080000000	-14.9561138826295	-168.849178131215	-45.3270308219474	124.083602398303	36.3279290458823	159.795009752197	-1.11203417821938	-140.871575034952	
1090000000	-18.0226210449545	177.512763779512	-42.5165866851376	119.106466542943	36.6165596115487	156.03846591192	-1.4934170691255	-144.765093899071	
1100000000	-14.9325179641372	-165.258273821885	-36.1308571917392	-92.419443052642	36.9156213034761	152.254905280548	-0.964048026619139	-146.838037884555	
1110000000	-14.4903267074701	-174.44148022425	-35.4226935228572	-58.3888316334614	37.0712618799976	147.610797187781	-0.84762444026783	-152.121779070957	
1120000000	-15.4737500500382	175.862703249345	-43.8340806510046	-48.249109852245	37.1125351511306	143.933143899512	-1.40176836113175	-159.82290654367	
1130000000	-14.8641959062603	172.324149420847	-42.9446333312046	-19.7530092018134	37.1394703965061	140.018580621671	-1.38441487646161	-163.858845718206	
1140000000	-15.2209632808006	-178.563740864774	-49.1632281017471	85.9736477098324	37.1155370051686	136.667771230417	-1.2997214911597	-163.835462758678	
1150000000	-13.4335214545152	173.290522727672	-42.3684879834519	61.212288489425	37.1463025424262	134.032969615798	-1.33344378625238	-166.737450228396	
1160000000	-17.9210858722973	178.682723617668	-40.6421183581737	-56.2681528598971	37.295923573484	131.32305072403	-2.03801436186359	-166.576596954583	
1170000000	-18.0068547095115	178.03250432603	-41.8554903194715	20.5683781553485	37.4525261294254	128.323708618613	-2.22128378116857	-170.19630084481	
1180000000	-21.3887182464055	152.951334622476	-34.3689478132234	73.3233306968807	37.7296588634964	124.573344178879	-2.97853092324057	-178.273356893238	
1190000000	-17.8572424012009	-154.628766201899	-42.6493139120596	-8.46209435779365	37.9338268884524	121.613320477642	-2.682854169663	-173.11202506741	
1200000000	-13.4950344495382	178.602017692726	-32.0461418568129	-74.9738002065471	38.1999120320555	116.352669734134	-1.13720830972921	177.798173043976	
1210000000	-15.5411088984679	-157.288031790319	-35.3841712479509	22.4575992814128	38.3219641523826	112.157265231235	-2.38865768277773	178.186542198441	
1220000000	-17.3329426565741	151.789637629939	-42.5436551564081	-52.4318572791789	38.241046094598	107.905807915582	-2.73383009556116	162.272032948588	
1230000000	-15.4856207600609	163.799904108366	-41.6713400361809	57.3533094813901	38.1782938305364	103.777593120842	-2.222790224381	162.442711807516	
1240000000	-15.8152552547611	-162.054791155989	-35.7062536309903	177.835991271068	38.1436575416503	100.401334168444	-3.10048174853118	166.592178409499	
1250000000	-13.2873996223926	145.05015111689	-36.2989200464075	85.0371744366775	38.331549693193	97.7882371546727	-1.74084285359543	151.737690174356	
1260000000	-20.7804814086419	128.201564362842	-34.1782766395813	26.6364367503427	38.4131371239241	94.2017224814695	-3.86830457203133	143.892726456597	
1270000000	-15.2151755865441	159.861882740186	-41.8618261274272	142.637612480825	38.6869626218514	90.8490532960217	-2.82270304809645	146.492294923743	
1280000000	-24.9986387708766	-175.091611211031	-38.0434372971787	109.081064778006	38.761590401662	86.6539310066231	-4.42884195703661	138.216133088253	
1290000000	-18.80778071991	-169.263906150921	-55.9836150677781	169.220574106383	38.9024190050296	82.3332107671554	-4.19246899859367	137.023116863275	
1300000000	-23.5851785689242	169.694362999013	-40.742510202058	-132.625826291165	38.9606289820091	77.555360472164	-4.20640264702809	125.629314477874	
1310000000	-20.7219768904696	163.210930788578	-42.4925030824852	-64.5937354865769	38.9564815075596	73.0759802757987	-4.12952486889859	117.681762548235	
1320000000	-22.5196032260331	156.792833315575	-46.9593551940299	-61.5761622486268	38.9401147857282	68.6546477011739	-4.45625508276565	111.842173515047	
1330000000	-24.4543737652083	165.349652012594	-40.5430015626856	-60.6491973005795	38.927987165317	64.6181604492467	-4.65275543358643	103.850910825295	
1340000000	-17.5529918528073	-140.25000947671	-34.2721974994078	-87.9193536647402	38.8498512610853	60.4486461350499	-6.71227096921104	103.671409059729	
1350000000	-12.2373458973002	150.160214336214	-36.7970218183973	158.070366620376	38.9351828028305	57.9819821701009	-2.83621892576918	108.4892658516	
1360000000	-12.4802927591627	160.627528573417	-38.8953183076449	-147.010228822893	39.001857960885	54.0595454091027	-3.69824331105853	104.510680481529	
1370000000	-10.1199411120799	-156.628449995694	-31.8659571837764	-24.0275576948321	39.0325386746479	50.3086677382405	-7.62903948552556	108.937279777591	
1380000000	-16.7910295855775	-179.147162489878	-53.0318084873543	-140.929286668486	39.0559347621185	45.2727390218224	-5.64314568752415	84.2616409881189	
1390000000	-12.6233980030116	174.708859756358	-37.9901849915305	-33.5979722259926	39.0323016812502	40.405193479657	-5.38949696181721	80.7728586195345	
1400000000	-17.8162395255293	-100.538284236913	-33.8848850748234	-152.769066797553	39.0493386174047	36.9446172957689	-5.55592399961219	44.9809033035034	
1410000000	-22.7516379185241	174.801605171666	-39.5694571304681	-69.1506006750256	38.9128201952225	31.887070425706	-4.76296567899728	51.346824286825	
1420000000	-12.1917601028201	-179.379024324222	-34.9047123236558	159.75440141708	38.6943032696484	27.425825163056	-7.27057356983182	60.8278150756016	
1430000000	-23.051674593055	-178.288515546929	-37.5076174427242	-34.7296953387107	38.7175966358384	23.6745839880867	-4.30191947802284	38.1709145402551	
1440000000	-17.2340008846786	-179.122315894296	-39.4091059876184	-41.7004831506034	38.5394069344293	20.4157543362417	-5.56063715286427	35.9551793676823	
1450000000	-16.385169586507	137.170488494814	-42.134836626173	115.834699810146	38.581529951188	16.5254731963752	-3.91333493081083	40.7633293082101	
1460000000	-15.402991786357	148.270745882944	-44.3964345898045	169.849332492101	38.4997331258748	13.0812351320115	-4.90126323962134	33.4986516456141	
1470000000	-15.7779375236419	167.929160700369	-43.8530499203274	167.301743429481	38.4692196805044	8.87992738424065	-5.28321737834551	23.5669102776546	
1480000000	-11.7873984149124	176.035485828203	-42.8636239205487	59.2705971182111	38.4591934502033	4.44362714633602	-7.65468689296882	15.7694091656642	
1490000000	-12.2437423929536	147.908659924316	-37.8283635001766	-0.462047961617864	38.2523405899197	-0.173107765728695	-6.35365055971813	20.1652382135402	
1500000000	-21.8209914148229	-160.193545135227	-33.5941296484627	-86.1617328972772	38.2708144299112	-3.4514526061204	-3.33180709462281	-4.83846596032658	
1510000000	-12.8481415334941	145.939236002771	-39.2803581574038	82.7323866479884	37.9823585866802	-7.5971092615214	-5.20118753966168	2.83929239941311	
1520000000	-16.9523486647406	155.051748140267	-46.9523502873137	-4.28157221968382	37.8741655350046	-11.9254360737622	-3.99533398514684	-9.00983280976467	
1530000000	-12.4905471007054	131.659247294962	-37.7010653543797	168.730790578143	37.7203319939301	-15.1751786172982	-4.60382472779346	-3.61189537498745	
1540000000	-12.1691395843075	114.503754500067	-34.5753986026625	179.174603334892	37.5987624178487	-19.0841580022154	-4.0025480861045	-4.1957077306037	
1550000000	-12.3459730726581	117.525102725119	-35.9234487367212	-138.238031446067	37.4345787440104	-22.4040262447331	-4.41499868719956	-9.57490580557078	
1560000000	-11.2013280020955	126.369542684659	-36.7133692675201	-85.883555973213	37.382378881157	-25.7102401119966	-5.28810434996239	-14.7690645944562	
1570000000	-11.4371377206755	140.259376031543	-43.1816901388862	-4.30163862176217	37.2773412861228	-29.4595267200957	-5.69565182915684	-27.4936731610871	
1580000000	-9.27914339242196	137.937655946158	-34.8430488275505	35.3313984321831	37.1117527909759	-33.6661598343399	-7.21801745561338	-33.7922782845878	
1590000000	-12.5602643623289	136.657445808562	-44.1188493943816	25.76108891155	36.9872389774666	-36.9732578934533	-4.62137971774938	-39.5103080645965	
1600000000	-10.3762840366797	151.765985242221	-35.8535409466826	176.377939854335	36.7514645467069	-40.8501947777511	-4.84613135444635	-57.3155442231943	
1610000000	-11.821348837113	149.012719013785	-40.7438892972901	-140.391101254672	36.53601917757	-44.5060265438997	-3.88056231007398	-56.5654476708064	
1620000000	-11.459167234196	134.042279771665	-38.2057557545932	-151.057954210575	36.3688808400381	-47.0372956655464	-4.14965776927805	-55.7283700569898	
1630000000	-14.3235351103123	132.953632627719	-62.2362607015136	-174.826429185844	36.1772832850412	-50.3990858384554	-3.03431052364263	-55.4579010878423	
1640000000	-14.4313180965882	107.726222542898	-37.139289834633	-164.339965812222	35.9872880418964	-53.4794907935434	-3.1228100877502	-50.3951700131043	
1650000000	-13.7410441601882	126.926913955642	-48.4750843643622	118.240556982958	35.9465748666408	-55.8145452919369	-3.11181469560318	-61.7784757538581	
1660000000	-12.4852930616457	111.405082570129	-42.3406948907308	-71.8641624514019	35.8521278194383	-59.4194973255536	-3.78462003591177	-60.4197766885594	
1670000000	-12.3347505822804	133.062182894258	-39.0827846744608	165.59242811779	35.900228230267	-62.8973563006712	-3.03774264875553	-73.0221452398926	
1680000000	-16.8764241514425	143.160032392833	-31.5859209064547	-104.409053779319	35.7650321636956	-66.4334580462912	-1.71933725231369	-74.4892275425649	
1690000000	-11.3027083434031	111.419448566249	-37.7217451946203	77.458977556619	35.5466175635265	-70.2470887314178	-4.05155732858518	-77.6752928661416	
1700000000	-13.8941793909404	117.970191843309	-40.4609792305226	38.8312456005946	35.3302934792151	-74.4466492904824	-2.53774406883676	-82.8955463293095	
1710000000	-11.5415968914489	121.389433341733	-45.9702838581778	-158.17580672753	35.0202180054644	-77.4159077883238	-2.7376161471994	-91.7094437980522	
1720000000	-13.5810242124294	114.360094496865	-41.3294069702429	151.53168214913	34.7427487392212	-80.2664162046233	-2.44499128454127	-88.5629020679281	
1730000000	-13.2753916289003	117.657915588506	-58.9714761836942	52.4598490282275	34.566694105549	-82.0913792963352	-2.15152038926899	-92.0053291284529	
1740000000	-14.4198402095552	96.0842043252435	-38.2673872012894	-132.795150295185	34.3662317063947	-84.5579230148672	-2.39058095522992	-86.485737070326	
1750000000	-12.3434826395756	98.1639529029023	-48.2142206126306	-46.5194862593583	34.3964305266049	-87.1267205872257	-2.61520271281451	-90.6848195105297	
1760000000	-14.6831326678848	88.6448005559065	-37.3115179010473	-86.9854815516151	34.4171627972106	-89.4721422838317	-2.35025682987515	-88.4726387143461	
