!Keysight Technologies N9923A: A.08.18
!Date: Friday, 22 December 2017 12:13:11
!Timezone: (GMT-05:00) Eastern Time (US & Canada)
!Model: N9923A
!Serial: MY52412517
!GPS Latitude: 
!GPS Longitude: 
!GPS TimeStamp: 0001-01-01 00:00:00Z
!GPS Seconds Since Last Read: 0
!CHECKSUM:1959744249
!Correction: S11(ON Q?)S21(ON Q?)S12(ON Q?)S22(ON Q?)
!S2P File: Measurements:S11,S21,S12,S22:
# Hz S DB R 50
500000000	-0.371943470472436	-128.200267094337	-38.2120238969233	-43.4075115255322	-30.4670773232512	64.5497020320922	-3.70753682281293	-1.43339283467587	
510000000	-0.211995303647906	-128.283082363836	-35.407294554676	35.9769683504582	-27.2183902654529	59.9229771062919	-3.34328815344945	-10.5678602327488	
520000000	-0.216314680512055	-129.519521849726	-52.5424708269401	-44.6377551011642	-28.3179187691968	75.7054989450264	-3.16343843885006	-19.8067834237955	
530000000	-0.352763643454389	-130.704429721086	-40.6093664691022	-17.8173866013061	-27.1476588929053	52.4829654845996	-3.16498438284757	-24.0049109174691	
540000000	-0.298975873527363	-133.83363865015	-36.9121279238461	102.862663607259	-27.2512109511051	42.4989686603796	-3.33108272018447	-31.9028522331253	
550000000	-0.362830411437045	-138.559036926784	-50.3834248320446	-0.310608648613395	-26.2504271162364	27.057345990632	-3.34535347650425	-36.4910381767022	
560000000	-0.419585873133736	-143.33122153861	-38.521395397584	30.9609758512982	-25.3807568612374	30.6984572527925	-3.75543601893979	-43.724017393879	
570000000	-0.472291492685491	-147.282037772414	-41.2788077740133	34.5678128427921	-26.499487179161	14.3495893462294	-4.03569251153808	-51.9363738751525	
580000000	-0.444042307916367	-151.124422710072	-43.8885422847019	141.158193639927	-23.5779121473279	4.77564751012791	-4.10479850231434	-63.0681052173164	
590000000	-0.360344270254889	-152.673070511652	-46.7349303521961	-41.8662281140991	-23.8671321226351	-5.80262574300821	-3.99149695326583	-71.7936839633148	
600000000	-0.278649950870021	-155.709755214763	-38.2608252712146	131.987243248481	-23.780309833531	-7.74977497746095	-3.72053237243011	-78.3102906657082	
610000000	-0.31962151989712	-155.517858680026	-38.5658098237181	-162.251894127282	-25.0642651228042	-8.55495745260087	-4.01118643431168	-86.4968212153994	
620000000	-0.359892397313013	-158.489778978148	-46.5964116849516	94.8163863447027	-23.2751119449443	-12.6046912276332	-4.00591585909373	-92.2334291646031	
630000000	-0.221820834680702	-160.252086927334	-37.431212714851	-21.2426076779889	-22.4330750741177	-32.9460903682395	-4.03278760637461	-96.095931163078	
640000000	-0.442435128247137	-163.431640204597	-40.5839235334266	134.615067236118	-21.8924202973579	-27.1292225956547	-4.09497014122912	-101.886760017796	
650000000	-0.573036540238577	-166.645658658496	-36.4794101453643	-149.578275575391	-19.0833248058627	-48.1209434194588	-4.21620554375295	-110.139292134084	
660000000	-0.537790372958706	-170.767811772827	-42.7878411416356	96.3971133600788	-19.3392552786472	-46.0544226991367	-4.89549806427215	-116.820879382861	
670000000	-0.541940080956633	-175.434329549741	-41.1122142938835	-22.7121131859282	-19.4959627593688	-53.6313921512904	-4.78995547207923	-125.824026844435	
680000000	-0.641809307926249	-179.62614614112	-42.0424579333197	-138.835080037112	-17.5430547350959	-60.6729789123728	-4.54330534109769	-135.104854998116	
690000000	-0.534117687667702	178.060072856488	-43.7449965354139	-8.54547272921217	-16.8623212813071	-63.8193800391797	-4.52092386739892	-141.155421936955	
700000000	-0.72102006815261	176.245890363114	-31.7897453544478	26.715521489675	-17.76547586007	-77.609818436945	-4.60607942611428	-148.85362560411	
710000000	-0.448376614156826	174.687642030067	-41.9188174757354	-56.3171279827388	-15.3188537380115	-76.0921823240514	-4.61010581533748	-153.86151969718	
720000000	-0.516818948576163	174.177895846339	-33.0232370289706	140.23664977491	-14.6660803931719	-83.8175677303086	-4.48636077436593	-156.506044885588	
730000000	-0.582450591735465	171.223035506273	-39.8409068695499	174.622087923946	-14.9510405789539	-95.5204109626025	-5.01139255160444	-163.04245674081	
740000000	-0.799853490367416	169.21789685816	-43.4121501307979	40.3657556364816	-11.6694206218731	-100.340980718662	-4.59078699460492	-167.940276187684	
750000000	-0.683272074551176	164.753365423262	-40.3735022708509	59.5877009804153	-11.5475296753225	-109.220068555095	-5.33921576082879	-174.790589717449	
760000000	-0.89983371497499	160.099947839371	-38.5944774466092	-98.4522810886352	-9.75164546976242	-112.85339151043	-5.77325530668081	-179.048370822222	
770000000	-0.697063196471687	155.312071515608	-40.40539473615	30.8310834550268	-8.6056055686142	-118.821106309387	-5.43283257464964	172.080985703869	
780000000	-0.875861227633884	150.778994336877	-52.0013265216836	137.039076046421	-8.06204330194831	-127.962820057851	-5.33702358282462	162.774428108328	
790000000	-0.791784907675805	149.505988464179	-35.939971781648	-163.950302276978	-6.71688538712764	-131.245619568826	-5.14666836779327	159.676536282107	
800000000	-0.452171962171524	147.421974071214	-38.4747126823768	128.980399883844	-5.80527937883248	-139.666768289243	-4.92430942735082	154.431927463024	
810000000	-0.486792209237057	144.154868472642	-34.2753457241779	-0.767403590402754	-4.25770863266009	-146.713700577569	-4.66127619520488	150.864184054265	
820000000	-0.60210097474346	143.405883915555	-35.4401984478315	-51.6751521031453	-3.18548947157266	-153.277113661175	-4.75045347013697	146.083748957005	
830000000	-0.663047548367977	140.754336703351	-45.3230640353659	164.643355533295	-1.61117384341384	-159.841908722393	-5.10505279041175	143.170443859178	
840000000	-0.842725532059622	137.650138982069	-53.0379288077146	153.221944082574	-0.21686399733839	-165.564047478204	-5.23687196967814	136.7921906939	
850000000	-1.05288791921022	133.409088822064	-44.6997608535636	143.890100513736	1.16212106666047	-173.209708260659	-5.49000219712474	130.426892612263	
860000000	-1.16324526797822	128.270149578442	-41.3175112670751	147.530324326738	2.62023953088216	179.109685709208	-5.50022012251407	123.390203338104	
870000000	-1.15975681153575	123.988272044603	-41.8401539061089	54.0416693109342	3.91031531694084	171.798037337779	-5.25878686566688	116.017945784957	
880000000	-1.2394854038752	118.064676937371	-40.578201482742	136.137362644069	5.25033120782274	164.405358630589	-4.94437906809529	110.182351879235	
890000000	-1.0564793939953	115.320955662137	-41.1236727097817	-165.128627919914	6.68640376331001	156.913636741153	-4.3811821326009	106.510671599844	
900000000	-0.867489017211225	112.233473213194	-36.6363389355758	158.797211276483	8.13484083065737	149.822076134115	-4.18437219597863	102.034597335677	
910000000	-0.865282321184853	109.360058666718	-45.2011322692081	148.651340613697	9.63548403121004	142.292320981949	-4.11753688735619	98.7188819941731	
920000000	-1.016568593086	107.087290848374	-42.6677249676887	-16.9509839984023	11.1329685067286	135.016426692597	-3.95816701277837	94.9537720937591	
930000000	-1.03043638436437	104.876166858844	-44.5773023643178	0.953501516215457	12.7711517167123	127.07081188583	-3.93467167165768	91.3664376048574	
940000000	-1.28391698282497	101.112167421725	-51.2200346407975	-53.6537449441435	14.4459155046302	118.406980171472	-4.08916242924242	85.8765282161368	
950000000	-1.63041561243565	96.0572696845334	-49.8050485061063	179.119596292875	16.185319363358	109.498623893778	-3.72113200123373	76.0422039310706	
960000000	-1.6362429342088	90.8964519396382	-60.4578199130907	75.8695255600439	17.9634166376638	99.7337895719002	-3.35670456625239	67.4491480965654	
970000000	-1.60564344331044	83.953754739671	-38.6964096317991	-160.633406972455	19.7013857516041	89.0255051827277	-2.745597108692	59.1606490082172	
980000000	-1.6513280393597	78.7604709776249	-42.4448094687978	102.228084842427	21.4655133072295	77.6514929397546	-2.27002107627752	53.6318260032869	
990000000	-1.9162441550405	73.5962818920557	-46.5788690282792	-97.5702017074026	23.1417107797604	65.452053438621	-1.3200381283065	44.8789466487763	
1000000000	-1.80308225343796	69.9946465846946	-41.089141377914	-112.467393842927	24.7566445563452	52.1148225960327	-1.2198277410814	39.4741116294395	
1010000000	-2.0448161334654	67.7395151860692	-34.4994615629259	-136.707614625651	26.5018216736099	38.526695282998	-0.748957163512224	31.2046203899044	
1020000000	-2.59608778284089	64.1297471339766	-41.9500546514188	-89.4665292346376	28.0877036398933	23.0419393122609	-0.697736425535266	21.0921729369799	
1030000000	-3.12071288959196	61.8853371926587	-49.2252774766403	-120.97602867161	29.5782003879138	6.15091453674162	-0.809648581586254	7.78427987722496	
1040000000	-4.08041171561149	60.5441917829533	-40.4981513471338	171.869192104207	30.7539960422889	-12.4434850765969	-1.00258278794291	-7.17929252193381	
1050000000	-3.94593857739552	57.3468255774702	-40.6264115173104	164.503672148657	31.4893292971132	-31.5771478361503	-1.53969537700237	-22.0289539752307	
1060000000	-4.21104419144246	51.5321534062295	-46.8357662976777	109.49384950723	31.8258373198727	-49.7565174620801	-1.95582862581879	-32.1480490436955	
1070000000	-4.17126971853024	48.3058280478091	-42.8302792511905	-156.292161451129	31.9950572560415	-65.9662827415943	-2.85404414168292	-41.0697622190647	
1080000000	-4.4305447837792	41.3930512897284	-48.2792452076614	-22.4509129880149	32.0073546408058	-80.9704116581399	-3.74797066342371	-45.8999218911604	
1090000000	-4.46481494477361	35.3560516395835	-34.3903393709763	140.01376003402	31.9947949393771	-93.8753929087178	-3.76327888119199	-51.8461199897783	
1100000000	-3.87039664436629	34.8454775042077	-40.6152535771103	51.5215319865368	32.0214701783857	-106.844142297674	-5.17767674512221	-50.263974303024	
1110000000	-3.94997534819979	29.925390717415	-35.8213961504119	71.6786108674384	32.129712357682	-118.086195847228	-6.16998713930553	-54.4247186763385	
1120000000	-4.35312134961325	27.1898251875156	-40.9361779379161	147.530127945422	32.3342003092495	-129.612484430669	-6.93241941933255	-61.6857254318013	
1130000000	-5.53617703471774	22.3839158424096	-36.3465666171044	-104.044709638212	32.497538932538	-141.114790195645	-7.36211910218154	-74.496933607082	
1140000000	-4.95714570982999	12.42551527967	-36.3420962574183	135.773541235703	32.7145890556504	-152.10538711103	-6.54315476143149	-67.9235474988508	
1150000000	-5.53278560751748	1.63947746762015	-41.7536134593827	-177.294265732765	32.8875261379725	-164.30219116381	-6.34120336097726	-77.8027138980658	
1160000000	-6.97522807315495	-5.077225624518	-38.9825544953709	35.2334381872534	32.8890730756612	-175.454990597032	-6.34690520932955	-87.4198546245826	
1170000000	-7.64035413801214	-16.4322108316749	-42.7580843021868	86.7866219905419	32.9694858792043	174.493084669686	-5.62550156152212	-90.2747788829834	
1180000000	-8.0841763702301	-26.0470796528738	-39.6358486514334	152.076282992246	33.0608287740789	164.343616274236	-5.81680114104374	-95.1470629917535	
1190000000	-7.64793846753623	-30.2308268089425	-40.7302418128897	16.2185112442767	33.1867668187247	154.146144156621	-5.50624423270509	-94.0586433735336	
1200000000	-8.71716543511964	-33.5490046060484	-51.9291421177853	94.2237652214149	33.3606466192386	143.919105645531	-6.40522655974833	-100.588403108078	
1210000000	-10.5683986295569	-50.134932045218	-34.4353518704335	-26.1932845791526	33.5492801747085	133.737616193154	-6.11115871899167	-114.147023596486	
1220000000	-11.5981134535572	-43.8891875988438	-39.4966220358904	-103.619902636364	33.7428134165101	123.516810276611	-6.83859453778377	-116.528311266839	
1230000000	-14.0711088263962	-78.2605644199192	-34.8188490797618	74.2815256219979	33.7895414470059	111.572522167463	-5.30806564615428	-130.485594257228	
1240000000	-13.5624919624428	-94.5321708055258	-36.0080132020468	-176.048379262149	33.7209308610683	100.997148939722	-5.3043065312063	-133.543921783233	
1250000000	-16.7766207523885	-90.9872077614913	-31.9686490342146	-70.4780503862254	33.6771071833727	91.1778106553649	-5.88864816449398	-137.455253515467	
1260000000	-16.3057064933109	-141.538395206406	-38.4222010227319	-98.0518422038254	33.4848960366967	82.2836556387997	-5.23783673754182	-149.438891472286	
1270000000	-15.9751602010293	-166.676596911572	-37.3853406095344	-94.8836700440192	33.5769897505683	73.06695444418	-5.06173801348929	-154.74548556548	
1280000000	-15.8682548674388	-158.243031750156	-33.8263742195754	-22.4936980576879	33.5516397026857	64.1888156037254	-5.62718621060714	-154.444804229265	
1290000000	-18.0017260660044	166.605028695661	-37.1427482503371	-74.0096767345271	33.5935442135254	54.5003784978598	-6.50331992919322	-163.334930701334	
1300000000	-19.1644399323394	139.464818195176	-45.548556981431	-21.7431514513394	33.583753339312	44.8094174967823	-7.19346375882931	-168.452312723225	
1310000000	-14.9531052877689	102.243727562225	-36.2767598488329	-53.0379903926681	33.4844094921159	35.8521167178033	-8.37471930577749	172.455486529535	
1320000000	-14.2214657272699	93.2859272734486	-41.0499270577558	-75.9691181714565	33.3680981795856	26.2402278597465	-8.55537456841057	168.371607766507	
1330000000	-11.4033225482159	81.079601286665	-37.3311547117857	8.81784089794878	33.2532573165696	17.7501478577312	-8.85930059650749	151.337872911528	
1340000000	-12.8503689587919	79.0806528673678	-40.8629351660505	-23.578367723925	33.0660943818917	9.36363599187534	-8.66818458945865	150.819446135821	
1350000000	-12.7394909996389	89.8590040999414	-37.3565940300061	-54.3459524459359	32.8840459131997	1.46755508224515	-7.78207201691182	158.191533536453	
1360000000	-9.74769112737058	95.2974257274569	-29.7172797558628	-93.3620931522362	32.9273362235119	-6.29322830866976	-5.83717067566271	147.872035068567	
1370000000	-12.9251978187394	91.7771253663666	-37.7378025285019	10.2236902602885	32.8405922097402	-13.8401324273301	-7.30132051926543	156.223918943971	
1380000000	-14.4959086266297	63.6813610635779	-36.1562403917426	138.795045444524	32.8187502307421	-21.8464377811551	-9.47452778254615	154.357399125391	
1390000000	-9.67521931820502	58.9920731883891	-33.7768314051275	-51.5684947464488	32.698743099964	-30.63277254957	-9.27429185849834	129.183832662246	
1400000000	-10.5096364892239	41.0301415050295	-36.6729202903935	-65.7948040559074	32.6862107801228	-38.0917882719108	-11.9804486764903	118.673530760209	
1410000000	-9.92988736291649	32.571900540926	-43.7532140104272	-76.8237104234933	32.6381116200023	-46.515482518897	-12.0251317057182	117.23397457859	
1420000000	-9.19647696801498	39.7254879887803	-38.7701377519944	147.922227575704	32.4956434254414	-53.8534921673048	-9.84655310617529	104.667994367734	
1430000000	-9.47443524081644	33.7979745789156	-41.9686492330386	155.004657015946	32.4499294386359	-61.0507990805924	-9.9012048852613	98.2347892989405	
1440000000	-11.8462134112216	38.3300197093212	-39.07298598968	-33.7813192435063	32.2633454981296	-68.9360568843893	-10.1041844718632	111.143611183671	
1450000000	-10.0294453516842	15.7577629512114	-30.150152683717	131.865138794331	32.1613749091056	-76.0857447370349	-11.8756305504436	90.6213950180809	
1460000000	-11.0755460462435	18.7152281563467	-39.0516478570622	171.479093146436	32.1335908386203	-83.0108073245314	-9.4376499969291	103.073099328787	
1470000000	-12.5976901984971	14.6017872475548	-35.8502278961232	170.178770212575	32.1450965472194	-90.033968378386	-10.7311604432323	103.995626595612	
1480000000	-12.8107309160018	22.2297413533566	-34.3679144132381	111.638011895722	32.1767390073905	-97.5158503825633	-9.49565933563311	108.058761477439	
1490000000	-12.0145530447945	0.236763881535833	-46.4651961887868	148.144969732973	32.1311357225789	-104.75073957119	-12.0408469738433	91.2924717324255	
1500000000	-11.1007534775218	-6.51724247627154	-51.4198937462103	105.392113237413	32.0867405653743	-112.200374458397	-13.2953758481296	80.436819940428	
1510000000	-13.6269249801884	-6.97552708969542	-35.838237831887	-112.227070124459	32.0028168272077	-119.843587922282	-13.3556047236089	81.9067384486955	
1520000000	-11.5079595560162	-9.42815362412297	-46.0655264122653	-142.584825454871	32.0118729604357	-126.674688441895	-12.1334245949331	63.6401315833363	
1530000000	-11.0327624560824	-11.0949331311205	-46.8029056613344	-148.350191134675	31.9420015458133	-133.729315515784	-10.0515192368446	56.0066331448446	
1540000000	-14.9525640051972	-19.1701608023056	-32.3522729737547	50.5938397012485	31.8320376772487	-140.685919722593	-11.0611724190018	66.7839166801689	
1550000000	-13.1993236758038	-25.2303134206322	-36.2641484475166	150.328985256574	31.7880345744568	-147.938224295917	-11.3896220483336	46.0869946880076	
1560000000	-13.2843119124133	-10.9782302683289	-35.278663852629	27.6897090524457	31.7095116403469	-155.272139735342	-8.38468308395398	47.0271517398357	
1570000000	-15.5951665421301	-20.6893100769968	-37.4608214888895	85.6739095962892	31.6535446947315	-161.873559060645	-10.366205394579	47.3180456473297	
1580000000	-15.5259620616821	-52.2782295581669	-49.006402137542	126.993788165555	31.6681605171884	-168.518811391316	-12.095344493802	41.8769090181216	
1590000000	-18.1198302124088	-76.9938861222636	-36.5435788564288	-99.6753265149165	31.5734680269879	-176.409802694181	-16.0577492132963	46.0899828247656	
1600000000	-17.7900315880897	-67.1289734887844	-41.143419038277	-127.462941416529	31.5921421130608	177.481738352619	-12.4736186194603	32.5352344646194	
1610000000	-13.5380462442049	-72.9071056773708	-34.260903534126	111.317684435384	31.5385719033709	169.820284988934	-12.345024575019	-6.18346877204089	
1620000000	-16.6966504594299	-78.0138966470384	-38.674400523194	46.2030877120101	31.4440825079891	162.687598951738	-12.2408857948479	-0.784052259080151	
1630000000	-16.010432607231	-58.7778379475882	-39.0239689323492	-40.6626252770113	31.3503884150948	155.753613515806	-9.76050795075107	2.4650380252321	
1640000000	-16.4474120492502	-78.4074638717885	-48.7633140367425	179.411377908478	31.2378140646713	149.479823682848	-10.4968782910994	-12.6338690592174	
1650000000	-25.6300002259446	-79.6814984485081	-33.1376068358428	98.4820192534761	31.2087129939091	142.610787483012	-11.9557274784694	7.77539671499244	
1660000000	-21.8761743431703	-90.5187766114326	-42.4991893557373	39.4219934261713	31.0988623948982	136.230418479914	-11.8415784465242	-7.36451024771319	
1670000000	-21.4056226433299	-138.410491144375	-41.1521819608835	1.69350514958575	31.0893024876722	129.530836360161	-13.5691653275168	-12.3211199328502	
1680000000	-21.5422913248499	-112.199304579528	-33.2996883666369	93.247583464862	31.1038617588048	123.163398023883	-11.808329313533	-20.4763850489741	
1690000000	-21.5585241964803	-154.576913318331	-39.2085598974464	114.17614784445	31.0041477798154	115.826222248355	-13.7005268553737	-35.0644207897055	
1700000000	-17.8156960524244	-168.085266597649	-38.4901969850275	93.5893328831343	30.8434052352384	108.545914623197	-13.3844868532019	-61.7666403103219	
1710000000	-17.3632661248383	173.173640352252	-39.2146829241011	40.2385564928267	30.7542806592673	101.9582223206	-13.4061966987042	-66.4986601856233	
1720000000	-21.4720812356764	152.701202207054	-34.2636904976731	4.80396255378597	30.6318271896972	95.2736131234573	-12.7666055831473	-56.165996125228	
1730000000	-21.5030989093228	170.790794366632	-40.124449988025	-11.4417015517309	30.4541640955757	89.3406079847123	-11.16376385337	-65.5260413232392	
1740000000	-22.6477321080458	151.091716340438	-39.7897747739918	6.50818899425669	30.3392771284893	83.1574507291346	-11.4525052920634	-57.9844414062951	
1750000000	-20.6525959216747	118.72263327948	-52.2029690659397	-167.019004716488	30.2997065698328	76.8846409831308	-12.8750083213084	-56.4580803201016	
1760000000	-18.426081294997	116.389337104079	-39.5257025811863	-20.6460592125832	30.2404918926755	70.2795858593898	-14.4255012360931	-55.5435622676787	
